(1753981437.419919) can0 7EC#23B400081529EA00
(1753981437.450877) can0 7E4#0322010500000000
(1753981437.459889) can0 7EC#102E620105003FFF
(1753981437.460248) can0 7E4#3000000000000000
(1753981437.463376) can0 594#241E2823E6A50000
(1753981437.463610) can0 491#3900000000000004
(1753981437.463734) can0 493#000D306900003A02
(1753981437.463986) can0 4DD#0000000000000100
(1753981437.464237) can0 4DE#00F11900F0D43E00
(1753981437.464483) can0 4E2#22014F010000D19E
(1753981437.464734) can0 542#AA1A00000000FFFF
(1753981437.464984) can0 595#1900C7C80000520F
(1753981437.465236) can0 596#218A00003900171A
(1753981437.465485) can0 597#0573000000000000
(1753981437.465733) can0 598#00000000C368F112
(1753981437.465983) can0 599#0800000000000000
(1753981437.466233) can0 59C#0000000000000000
(1753981437.466486) can0 59E#00000000520F0000
(1753981437.466743) can0 5A3#4F0000008C7D8C7D
(1753981437.466857) can0 5D5#000000A4C8C80015
(1753981437.467109) can0 5D6#C7C80000171A915A
(1753981437.467359) can0 5D7#0280000000000000
(1753981437.467609) can0 5D8#41AA15007300520F
(1753981437.469872) can0 7EC#2190000000000000
(1753981437.479875) can0 7EC#220000198A99191E
(1753981437.489873) can0 7EC#23242328000164F1
(1753981437.499880) can0 7EC#24AA03E800001100
(1753981437.509873) can0 7EC#25AA0000C8C80100
(1753981437.519871) can0 7EC#261200000000AAAA
(1753981437.563371) can0 594#241E2823E6A50000
(1753981437.563609) can0 491#3900000000000004
(1753981437.563732) can0 493#000D306900003A02
(1753981437.563981) can0 497#220000B400000000
(1753981437.564232) can0 498#0000000000000000
(1753981437.564482) can0 4DD#0000000000000100
(1753981437.564758) can0 4DE#00F11900F0D43E00
(1753981437.565000) can0 4E2#22014F010000D19E
(1753981437.565248) can0 542#AA1A00000000FFFF
(1753981437.565496) can0 595#1900C7C80000510F
(1753981437.565745) can0 596#228A00003900171A
(1753981437.565999) can0 597#8573000000000000
(1753981437.566239) can0 598#00000000C368F112
(1753981437.566499) can0 599#0800000000000000
(1753981437.566746) can0 59C#0000000000000000
(1753981437.566990) can0 59E#00000000510F0000
(1753981437.567237) can0 5A3#4F0000008C7D8C7D
(1753981437.567360) can0 5D5#000000A4C8C80015
(1753981437.567610) can0 5D6#C7C80000171A915A
(1753981437.567873) can0 5D7#0280000000000000
(1753981437.568111) can0 5D8#41AA15007300510F
(1753981437.568360) can0 7E4#0322010100000000
(1753981437.574905) can0 7EC#103E620101FFF7E7
(1753981437.575265) can0 7E4#3000000000000000
(1753981437.584909) can0 7EC#21FFA50000000007
(1753981437.594885) can0 7EC#2200000F511A1718
(1753981437.604874) can0 7EC#23171719000019C8
(1753981437.614886) can0 7EC#2442C73800008A00
(1753981437.624874) can0 7EC#25033514000323BB
(1753981437.634874) can0 7EC#2600012B2200011D
(1753981437.644875) can0 7EC#274000C76C9E0119
(1753981437.654889) can0 7EC#28997FFF7FFF01E9
(1753981437.663384) can0 594#241E2823E6A50000
(1753981437.663612) can0 491#3900000000000004
(1753981437.663861) can0 493#000D306900003A02
(1753981437.663986) can0 4DD#0000000000000100
(1753981437.664237) can0 4DE#00F11900F0D43E00
(1753981437.664489) can0 4E2#22014F010000D19E
(1753981437.664737) can0 542#AA1A00000000FFFF
(1753981437.664987) can0 595#1900C7C80000510F
(1753981437.665236) can0 596#2D8A00003900171A
(1753981437.665487) can0 597#0573000000000000
(1753981437.665737) can0 598#00000000C368F112
(1753981437.665987) can0 599#0800000000000000
(1753981437.666238) can0 59C#0000000000000000
(1753981437.666487) can0 59E#00000000510F0000
(1753981437.666738) can0 5A3#4F0000008C7D8C7D
(1753981437.666861) can0 5D5#000000A4C8C80015
(1753981437.667111) can0 5D6#C7C80000171A22B3
(1753981437.667366) can0 5D7#0280000000000000
(1753981437.667611) can0 5D8#41AA15007300510F
(1753981437.716390) can0 7E4#0322010600000000
(1753981437.724891) can0 7EC#101B620106FFFFFF
(1753981437.725251) can0 7E4#3000000000000000
(1753981437.734880) can0 7EC#21FF1900F0000000
(1753981437.744886) can0 7EC#2200000000010000
(1753981437.754885) can0 7EC#23B400081529EA00
(1753981437.763388) can0 594#241E2823E6A50000
(1753981437.763624) can0 491#3900000000000004
(1753981437.763750) can0 493#000D306900003A02
(1753981437.763999) can0 4DD#0000000000000100
(1753981437.764252) can0 4DE#00F11900F0D43E00
(1753981437.764500) can0 4E2#22014F010000D19E
(1753981437.764783) can0 542#AA1A00000000FFFF
(1753981437.765031) can0 595#1900C7C80000510F
(1753981437.765253) can0 596#3B8A00003900171A
(1753981437.765500) can0 597#8573000000000000
(1753981437.765749) can0 598#00000000C368F112
(1753981437.765999) can0 599#0800000000000000
(1753981437.766249) can0 59C#0000000000000000
(1753981437.766501) can0 59E#00000000510F0000
(1753981437.766625) can0 5A3#4F0000008C7D8C7D
(1753981437.766868) can0 5D5#000000A4C8C80015
(1753981437.767129) can0 5D6#C7C80000171A22B3
(1753981437.767376) can0 5D7#0280000000000000
(1753981437.767627) can0 5D8#41AA15007300510F
(1753981437.793920) can0 7E4#0322010500000000
(1753981437.799886) can0 7EC#102E620105003FFF
(1753981437.800254) can0 7E4#3000000000000000
(1753981437.809883) can0 7EC#2190000000000000
(1753981437.819880) can0 7EC#220000198A99191E
(1753981437.829889) can0 7EC#23242328000164F1
(1753981437.839889) can0 7EC#24AA03E800001100
(1753981437.849892) can0 7EC#25AA0000C8C80100
(1753981437.859920) can0 7EC#261200000000AAAA
(1753981437.863380) can0 594#241E2823E6A50000
(1753981437.863617) can0 491#3900000000000004
(1753981437.863765) can0 493#000D306900003A02
(1753981437.864003) can0 4DD#0000000000000100
(1753981437.864251) can0 4DE#00F11900F0D43E00
(1753981437.864501) can0 4E2#22014F010000D19E
(1753981437.864786) can0 542#AA1A00000000FFFF
(1753981437.865030) can0 595#1900C7C80000520F
(1753981437.865253) can0 596#838A00003900171A
(1753981437.865500) can0 597#0573000000000000
(1753981437.865751) can0 598#00000000C368F112
(1753981437.866000) can0 599#0800000000000000
(1753981437.866270) can0 59C#0000000000000000
(1753981437.866500) can0 59E#00000000520F0000
(1753981437.866752) can0 5A3#4F0000008C7D8C7D
(1753981437.866999) can0 5D5#000000A4C8C80015
(1753981437.867131) can0 5D6#C7C80000171A3B5A
(1753981437.867377) can0 5D7#0280000000000000
(1753981437.867629) can0 5D8#41AA15007300520F
(1753981437.900141) can0 7E4#0322010100000000
(1753981437.909893) can0 7EC#103E620101FFF7E7
(1753981437.910249) can0 7E4#3000000000000000
(1753981437.919902) can0 7EC#21FFA50000000007
(1753981437.929893) can0 7EC#2200000F511A1718
(1753981437.939881) can0 7EC#23171719000019C8
(1753981437.949880) can0 7EC#2442C73800008A00
(1753981437.959897) can0 7EC#25033514000323BB
(1753981437.963422) can0 594#241E2823E6A50000
(1753981437.963659) can0 491#3900000000000004
(1753981437.963780) can0 493#000D306900003A02
(1753981437.963993) can0 4DD#0000000000000100
(1753981437.964242) can0 4DE#00F11900F0D43E00
(1753981437.964490) can0 4E2#22014F010000D19E
(1753981437.964746) can0 542#AA1A00000000FFFF
(1753981437.965002) can0 595#1900C7C80000510F
(1753981437.965253) can0 596#918A00003900171A
(1753981437.965502) can0 597#8573000000000000
(1753981437.965754) can0 598#00000000C368F112
(1753981437.966000) can0 599#0800000000000000
(1753981437.966282) can0 59C#0000000000000000
(1753981437.966531) can0 59E#00000000510F0000
(1753981437.966784) can0 5A3#4F0000008C7D8C7D
(1753981437.966906) can0 5D5#000000A4C8C80015
(1753981437.967156) can0 5D6#C7C80000171A3B5A
(1753981437.967380) can0 5D7#0280000000000000
(1753981437.967628) can0 5D8#41AA15007300510F
(1753981437.969912) can0 7EC#2600012B2200011D
(1753981437.979892) can0 7EC#274000C76C9E0119
(1753981437.989935) can0 7EC#28997FFF7FFF01E9
(1753981438.045130) can0 7E4#0322010600000000
(1753981438.055048) can0 7EC#101B620106FFFFFF
(1753981438.055251) can0 7E4#3000000000000000
(1753981438.063384) can0 594#241E2823E6A50000
(1753981438.063624) can0 491#3900000000000004
(1753981438.063747) can0 493#000D306900003A02
(1753981438.064007) can0 4DD#0000000000000100
(1753981438.064256) can0 4DE#00F11900F0D43E00
(1753981438.064496) can0 4E2#22014F010000D19E
(1753981438.064783) can0 542#AA1A00000000FFFF
(1753981438.065042) can0 595#1900C7C80000520F
(1753981438.065254) can0 596#218A00003900171A
(1753981438.065506) can0 597#0573000000000000
(1753981438.065754) can0 598#00000000C368F112
(1753981438.066005) can0 599#0800000000000000
(1753981438.066255) can0 59C#0000000000000000
(1753981438.066503) can0 59E#00000000520F0000
(1753981438.066756) can0 5A3#4F0000008C7D8C7D
(1753981438.067006) can0 5D5#000000A4C8C80015
(1753981438.067128) can0 5D6#C7C80000171A91B3
(1753981438.067380) can0 5D7#0280000000000000
(1753981438.067629) can0 5D8#41AA15007300520F
(1753981438.067879) can0 7EC#21FF1900F0000000
(1753981438.074931) can0 7EC#2200000000010000
(1753981438.084892) can0 7EC#23B400081529EA00
(1753981438.122638) can0 7E4#0322010500000000
(1753981438.129883) can0 7EC#102E620105003FFF
(1753981438.130241) can0 7E4#3000000000000000
(1753981438.140059) can0 7EC#2190000000000000
(1753981438.149884) can0 7EC#220000198A99191E
(1753981438.159886) can0 7EC#23242328000164F1
(1753981438.163390) can0 594#241E2823E6A50000
(1753981438.163615) can0 491#3900000000000004
(1753981438.163742) can0 493#000D306900003A02
(1753981438.164119) can0 4DD#0000000000000100
(1753981438.164241) can0 4DE#00F11900F0D43E00
(1753981438.164490) can0 4E2#22014F010000D19E
(1753981438.164748) can0 542#AA1A00000000FFFF
(1753981438.165004) can0 595#1900C7C80000520F
(1753981438.165254) can0 596#228A00003900171A
(1753981438.165499) can0 597#8573000000000000
(1753981438.165746) can0 598#00000000C368F112
(1753981438.165997) can0 599#0800000000000000
(1753981438.166245) can0 59C#0000000000000000
(1753981438.166497) can0 59E#00000000520F0000
(1753981438.166745) can0 5A3#4F0000008C7D8C7D
(1753981438.166994) can0 5D5#000000A4C8C80015
(1753981438.167120) can0 5D6#C7C80000171A91B3
(1753981438.167370) can0 5D7#0280000000000000
(1753981438.167620) can0 5D8#41AA15007300520F
(1753981438.169925) can0 7EC#24AA03E800001100
(1753981438.179920) can0 7EC#25AA0000C8C80100
(1753981438.189891) can0 7EC#261200000000AAAA
(1753981438.230156) can0 7E4#0322010100000000
(1753981438.239935) can0 7EC#103E620101FFF7E7
(1753981438.240248) can0 7E4#3000000000000000
(1753981438.250027) can0 7EC#21FFA50000000007
(1753981438.259899) can0 7EC#2200000F511A1718
(1753981438.263386) can0 594#241E2823E6A50000
(1753981438.263622) can0 491#3900000000000004
(1753981438.263871) can0 493#000D306900003A02
(1753981438.264123) can0 4DD#0000000000000100
(1753981438.264247) can0 4DE#00F11900F0D43E00
(1753981438.264496) can0 4E2#22014F010000D19E
(1753981438.264746) can0 542#AA1A00000000FFFF
(1753981438.264997) can0 595#1900C7C80000510F
(1753981438.265246) can0 596#2D8A00003900171A
(1753981438.265497) can0 597#0573000000000000
(1753981438.265747) can0 598#00000000C368F112
(1753981438.265998) can0 599#0800000000000000
(1753981438.266245) can0 59C#0000000000000000
(1753981438.266496) can0 59E#00000000510F0000
(1753981438.266746) can0 5A3#4F0000008C7D8C7D
(1753981438.266996) can0 5D5#000000A4C8C80015
(1753981438.267120) can0 5D6#C7C80000171A225A
(1753981438.267372) can0 5D7#0280000000000000
(1753981438.267619) can0 5D8#41AA15007300510F
(1753981438.269880) can0 7EC#23171719000019C8
(1753981438.279884) can0 7EC#2442C73800008A00
(1753981438.289906) can0 7EC#25033514000323BB
(1753981438.299932) can0 7EC#2600012B2200011D
(1753981438.309931) can0 7EC#274000C76C9E0119
(1753981438.319934) can0 7EC#28997FFF7FFF01E9
(1753981438.363387) can0 594#241E2823E6A50000
(1753981438.363622) can0 491#3900000000000004
(1753981438.363872) can0 493#000D306900003A02
(1753981438.363995) can0 4DD#0000000000000100
(1753981438.364245) can0 4DE#00F11900F0D43E00
(1753981438.364495) can0 4E2#22014F010000D19E
(1753981438.364745) can0 542#AA1A00000000FFFF
(1753981438.364994) can0 595#1900C7C80000510F
(1753981438.365245) can0 596#3B8A00003900171A
(1753981438.365497) can0 597#8573000000000000
(1753981438.365745) can0 598#00000000C368F112
(1753981438.365995) can0 599#0800000000000000
(1753981438.366245) can0 59C#0000000000000000
(1753981438.366494) can0 59E#00000000510F0000
(1753981438.366746) can0 5A3#4F0000008C7D8C7D
(1753981438.366870) can0 5D5#000000A4C8C80015
(1753981438.367119) can0 5D6#C7C80000171A225A
(1753981438.367370) can0 5D7#0280000000000000
(1753981438.367620) can0 5D8#41AA15007300510F
(1753981438.373933) can0 7E4#0322010600000000
(1753981438.379928) can0 7EC#101B620106FFFFFF
(1753981438.380269) can0 7E4#3000000000000000
(1753981438.389892) can0 7EC#21FF1900F0000000
(1753981438.399939) can0 7EC#2200000000010000
(1753981438.409886) can0 7EC#23B400081529EA00
(1753981438.437135) can0 7E4#0322010500000000
(1753981438.444884) can0 7EC#102E620105003FFF
(1753981438.445245) can0 7E4#3000000000000000
(1753981438.454926) can0 7EC#2190000000000000
(1753981438.463426) can0 594#241E2823E6A50000
(1753981438.463660) can0 491#3900000000000004
(1753981438.463912) can0 493#000D306900003A02
(1753981438.463995) can0 4DD#0000000000000100
(1753981438.464254) can0 4DE#00F11900F0D43E00
(1753981438.464504) can0 4E2#22014F010000D19E
(1753981438.464748) can0 542#AA1A00000000FFFF
(1753981438.465037) can0 595#1900C7C80000510F
(1753981438.465292) can0 596#838A00003900171A
(1753981438.465534) can0 597#0573000000000000
(1753981438.465786) can0 598#00000000C368F112
(1753981438.466035) can0 599#0800000000000000
(1753981438.466255) can0 59C#0000000000000000
(1753981438.466508) can0 59E#00000000510F0000
(1753981438.466756) can0 5A3#4F0000008C7D8C7D
(1753981438.467006) can0 5D5#000000A4C8C80015
(1753981438.467129) can0 5D6#C7C80000171A3BB3
(1753981438.467379) can0 5D7#0280000000000000
(1753981438.467632) can0 5D8#41AA15007300510F
(1753981438.467874) can0 7EC#220000198A99191E
(1753981438.474930) can0 7EC#23242328000164F1
(1753981438.485017) can0 7EC#24AA03E800001100
(1753981438.495018) can0 7EC#25AA0000C8C80100
(1753981438.504889) can0 7EC#261200000000AAAA
(1753981438.537016) can0 7E4#0322010100000000
(1753981438.544901) can0 7EC#103E620101FFF7E7
(1753981438.545253) can0 7E4#3000000000000000
(1753981438.555013) can0 7EC#21FFA50000000007
(1753981438.563388) can0 594#241E2823E6A50000
(1753981438.563623) can0 491#3900000000000004
(1753981438.563872) can0 493#000D306900003A02
(1753981438.563997) can0 497#110000B400000000
(1753981438.564372) can0 498#0000000000000000
(1753981438.564622) can0 4DD#0000000000000100
(1753981438.564746) can0 4DE#00F11900F0D43E00
(1753981438.564994) can0 4E2#22014F010000D19E
(1753981438.565245) can0 542#AA1A00000000FFFF
(1753981438.565494) can0 595#1900C7C80000510F
(1753981438.565745) can0 596#918A00003900171A
(1753981438.565994) can0 597#8573000000000000
(1753981438.566246) can0 598#00000000C368F112
(1753981438.566495) can0 599#0800000000000000
(1753981438.566744) can0 59C#0000000000000000
(1753981438.566994) can0 59E#00000000510F0000
(1753981438.567245) can0 5A3#4F0000008C7D8C7D
(1753981438.567369) can0 5D5#000000A4C8C80015
(1753981438.567619) can0 5D6#C7C80000171A3BB3
(1753981438.567870) can0 5D7#0280000000000000
(1753981438.568120) can0 5D8#41AA15007300510F
(1753981438.568370) can0 7EC#2200000F511A1718
(1753981438.574876) can0 7EC#23171719000019C8
(1753981438.584882) can0 7EC#2442C74B00008A00
(1753981438.594897) can0 7EC#25033514000323BB
(1753981438.604885) can0 7EC#2600012B2200011D
(1753981438.614884) can0 7EC#274000C76C9F0119
(1753981438.624887) can0 7EC#28997FFF7FFF01E9
(1753981438.663429) can0 594#241E2823E6A50000
(1753981438.663665) can0 491#3900000000000004
(1753981438.663910) can0 493#000D306900003A02
(1753981438.664164) can0 4DD#0000000000000100
(1753981438.664291) can0 4DE#00F11900F0D43E00
(1753981438.664539) can0 4E2#22014F010000D19E
(1753981438.664752) can0 542#AA1A00000000FFFF
(1753981438.665038) can0 595#1900C7C80000520F
(1753981438.665291) can0 596#218A00003900171A
(1753981438.665538) can0 597#0573000000000000
(1753981438.665790) can0 598#00000000C368F112
(1753981438.666039) can0 599#0800000000000000
(1753981438.666288) can0 59C#0000000000000000
(1753981438.666510) can0 59E#00000000520F0000
(1753981438.666759) can0 5A3#4F0000008C7D8C7D
(1753981438.667010) can0 5D5#000000A4C8C80015
(1753981438.667259) can0 5D6#C7C80000171A915A
(1753981438.667385) can0 5D7#0280000000000000
(1753981438.667634) can0 5D8#41AA15007300520F
(1753981438.751429) can0 7E4#0322010600000000
(1753981438.759903) can0 7EC#101B620106FFFFFF
(1753981438.760258) can0 7E4#3000000000000000
(1753981438.763388) can0 594#241E2823E6A50000
(1753981438.763639) can0 491#3900000000000004
(1753981438.763874) can0 493#000D306900003A02
(1753981438.764125) can0 4DD#0000000000000100
(1753981438.764248) can0 4DE#00F11900F0D43E00
(1753981438.764497) can0 4E2#22014F010000D19E
(1753981438.764750) can0 542#AA1A00000000FFFF
(1753981438.765000) can0 595#1900C7C80000520F
(1753981438.765249) can0 596#228A00003900171A
(1753981438.765500) can0 597#8573000000000000
(1753981438.765747) can0 598#00000000C368F112
(1753981438.766000) can0 599#0800000000000000
(1753981438.766250) can0 59C#0000000000000000
(1753981438.766552) can0 59E#00000000520F0000
(1753981438.766802) can0 5A3#4F0000008C7D8C7D
(1753981438.767051) can0 5D5#000000A4C8C80015
(1753981438.767273) can0 5D6#C7C80000171A915A
(1753981438.767399) can0 5D7#0280000000000000
(1753981438.767646) can0 5D8#41AA15007300520F
(1753981438.770055) can0 7EC#21FF1900F0000000
(1753981438.780033) can0 7EC#2200000000010000
(1753981438.790014) can0 7EC#23B400081529EA00
(1753981438.863422) can0 594#241E2823E6A50000
(1753981438.863626) can0 491#3900000000000004
(1753981438.863927) can0 493#000D306900003A02
(1753981438.864137) can0 4DD#0000000000000100
(1753981438.864259) can0 4DE#00F11900F0D43E00
(1753981438.864523) can0 4E2#22014F010000D19E
(1753981438.864804) can0 542#AA1A00000000FFFF
(1753981438.865053) can0 595#1900C7C80000520F
(1753981438.865302) can0 596#2D8A00003900171A
(1753981438.865502) can0 597#0573000000000000
(1753981438.865772) can0 598#00000000C368F112
(1753981438.866022) can0 599#0800000000000000
(1753981438.866272) can0 59C#0000000000000000
(1753981438.866521) can0 59E#00000000520F0000
(1753981438.866773) can0 5A3#4F0000008C7D8C7D
(1753981438.867021) can0 5D5#000000A4C8C80015
(1753981438.867271) can0 5D6#C7C80000171A22B3
(1753981438.867524) can0 5D7#0280000000000000
(1753981438.867647) can0 5D8#41AA15007300520F
(1753981438.901441) can0 7E4#0322010500000000
(1753981438.910031) can0 7EC#102E620105003FFF
(1753981438.910253) can0 7E4#3000000000000000
(1753981438.920061) can0 7EC#2190000000000000
(1753981438.929910) can0 7EC#220000198A99191E
(1753981438.940036) can0 7EC#23242328000164F1
(1753981438.950067) can0 7EC#24AA03E800001100
(1753981438.960021) can0 7EC#25AA0000C8C80100
(1753981438.963399) can0 594#241E2823E6A50000
(1753981438.963631) can0 491#3900000000000004
(1753981438.963881) can0 493#000D306900003A02
(1753981438.964006) can0 4DD#0000000000000100
(1753981438.964255) can0 4DE#00F11900F0D43E00
(1753981438.964505) can0 4E2#22014F010000D19E
(1753981438.964755) can0 542#AA1A00000000FFFF
(1753981438.965003) can0 595#1900C7C80000520F
(1753981438.965252) can0 596#3B8A00003900171A
(1753981438.965502) can0 597#8573000000000000
(1753981438.965752) can0 598#00000000C368F112
(1753981438.966001) can0 599#0800000000000000
(1753981438.966252) can0 59C#0000000000000000
(1753981438.966500) can0 59E#00000000520F0000
(1753981438.966752) can0 5A3#4F0000008C7D8C7D
(1753981438.967002) can0 5D5#000000A4C8C80015
(1753981438.967252) can0 5D6#C7C80000171A22B3
(1753981438.967501) can0 5D7#0280000000000000
(1753981438.967626) can0 5D8#41AA15007300520F
(1753981438.970008) can0 7EC#261200000000AAAA
(1753981439.008915) can0 7E4#0322010100000000
(1753981439.015024) can0 7EC#103E620101FFF7E7
(1753981439.015276) can0 7E4#3000000000000000
(1753981439.025034) can0 7EC#21FFA50000000007
(1753981439.034943) can0 7EC#2200000F511A1718
(1753981439.044945) can0 7EC#23171719000019C8
(1753981439.055023) can0 7EC#2442C73200008A00
(1753981439.063442) can0 594#241E2823E6A50000
(1753981439.063651) can0 491#3900000000000004
(1753981439.063877) can0 493#000D306900003A02
(1753981439.064152) can0 4DD#0000000000000100
(1753981439.064272) can0 4DE#00F11900F0D43E00
(1753981439.064523) can0 4E2#22014F010000D19E
(1753981439.064756) can0 542#AA1A00000000FFFF
(1753981439.065027) can0 595#1900C7C80000510F
(1753981439.065275) can0 596#838A00003900171A
(1753981439.065529) can0 597#0573000000000000
(1753981439.065772) can0 598#00000000C368F112
(1753981439.066025) can0 599#0800000000000000
(1753981439.066273) can0 59C#0000000000000000
(1753981439.066523) can0 59E#00000000510F0000
(1753981439.066775) can0 5A3#4F0000008C7D8C7D
(1753981439.067023) can0 5D5#000000A4C8C80015
(1753981439.067129) can0 5D6#C7C80000171A3B5A
(1753981439.067418) can0 5D7#0280000000000000
(1753981439.067677) can0 5D8#41AA15007300510F
(1753981439.067930) can0 7EC#25033514000323BB
(1753981439.075062) can0 7EC#2600012B2200011D
(1753981439.085022) can0 7EC#274000C76C9F0119
(1753981439.095027) can0 7EC#28997FFF7FFF01E9
(1753981439.162694) can0 7E4#0322010600000000
(1753981439.163431) can0 594#241E2823E6A50000
(1753981439.163682) can0 491#3900000000000004
(1753981439.163931) can0 493#000D306900003A02
(1753981439.164153) can0 4DD#0000000000000100
(1753981439.164253) can0 4DE#00F11900F0D43E00
(1753981439.164527) can0 4E2#22014F010000D19E
(1753981439.164755) can0 542#AA1A00000000FFFF
(1753981439.165009) can0 595#1900C7C80000510F
(1753981439.165259) can0 596#918A00003900171A
(1753981439.165505) can0 597#8573000000000000
(1753981439.165808) can0 598#00000000C368F112
(1753981439.166006) can0 599#0800000000000000
(1753981439.166259) can0 59C#0000000000000000
(1753981439.166506) can0 59E#00000000510F0000
(1753981439.166755) can0 5A3#4F0000008C7D8C7D
(1753981439.167007) can0 5D5#000000A4C8C80015
(1753981439.167131) can0 5D6#C7C80000171A3B5A
(1753981439.167381) can0 5D7#0280000000000000
(1753981439.167632) can0 5D8#41AA15007300510F
(1753981439.169892) can0 7EC#101B620106FFFFFF
(1753981439.170304) can0 7E4#3000000000000000
(1753981439.180070) can0 7EC#21FF1900F0000000
(1753981439.190018) can0 7EC#2200000000010000
(1753981439.200044) can0 7EC#23B400081529EA00
(1753981439.240914) can0 7E4#0322010500000000
(1753981439.250040) can0 7EC#102E620105003FFF
(1753981439.250262) can0 7E4#3000000000000000
(1753981439.260030) can0 7EC#2190000000000000
(1753981439.263396) can0 594#241E2823E6A50000
(1753981439.263653) can0 491#3900000000000004
(1753981439.263904) can0 493#000D306900003A02
(1753981439.264153) can0 4DD#0000000000000100
(1753981439.264255) can0 4DE#00F11900F0D43E00
(1753981439.264527) can0 4E2#22014F010000D19E
(1753981439.264758) can0 542#AA1A00000000FFFF
(1753981439.265047) can0 595#1900C7C80000510F
(1753981439.265258) can0 596#218A00003900171A
(1753981439.265503) can0 597#0573000000000000
(1753981439.265805) can0 598#00000000C368F112
(1753981439.266028) can0 599#0800000000000000
(1753981439.266275) can0 59C#0000000000000000
(1753981439.266525) can0 59E#00000000510F0000
(1753981439.266775) can0 5A3#4F0000008C7D8C7D
(1753981439.267024) can0 5D5#000000A4C8C80015
(1753981439.267276) can0 5D6#C7C80000171A91B3
(1753981439.267525) can0 5D7#0280000000000000
(1753981439.267651) can0 5D8#41AA15007300510F
(1753981439.270060) can0 7EC#220000198A99191E
(1753981439.279929) can0 7EC#23242328000164F1
(1753981439.290045) can0 7EC#24AA03E800001100
(1753981439.300024) can0 7EC#25AA0000C8C80100
(1753981439.310027) can0 7EC#261200000000AAAA
(1753981439.350147) can0 7E4#0322010100000000
(1753981439.360022) can0 7EC#103E620101FFF7E7
(1753981439.360253) can0 7E4#3000000000000000
(1753981439.363422) can0 594#241E2823E6A50000
(1753981439.363673) can0 491#3900000000000004
(1753981439.363922) can0 493#000D306900003A02
(1753981439.364181) can0 4DD#0000000000000100
(1753981439.364308) can0 4DE#00F11900F0D43E00
(1753981439.364680) can0 4E2#22014F010000D19E
(1753981439.364760) can0 542#AA1A00000000FFFF
(1753981439.365055) can0 595#1900C7C80000520F
(1753981439.365276) can0 596#228A00003900171A
(1753981439.365526) can0 597#8573000000000000
(1753981439.365774) can0 598#00000000C368F112
(1753981439.366027) can0 599#0800000000000000
(1753981439.366276) can0 59C#0000000000000000
(1753981439.366526) can0 59E#00000000520F0000
(1753981439.366773) can0 5A3#4F0000008C7D8C7D
(1753981439.367028) can0 5D5#000000A4C8C80015
(1753981439.367274) can0 5D6#C7C80000171A91B3
(1753981439.367525) can0 5D7#0280000000000000
(1753981439.367648) can0 5D8#41AA15007300520F
(1753981439.370060) can0 7EC#21FFA50000000007
(1753981439.380027) can0 7EC#2200000F521A1718
(1753981439.390053) can0 7EC#23171719000019C8
(1753981439.400070) can0 7EC#2442C73800008A00
(1753981439.410025) can0 7EC#25033514000323BB
(1753981439.420071) can0 7EC#2600012B2200011D
(1753981439.430069) can0 7EC#274000C76C9F0119
(1753981439.440023) can0 7EC#28997FFF7FFF01E9
(1753981439.463401) can0 594#241E2823E6A50000
(1753981439.463630) can0 491#3900000000000004
(1753981439.463880) can0 493#000D306900003A02
(1753981439.464131) can0 4DD#0000000000000100
(1753981439.464381) can0 4DE#00F11900F0D43E00
(1753981439.464506) can0 4E2#22014F010000D19E
(1753981439.464756) can0 542#AA1A00000000FFFF
(1753981439.465005) can0 595#1900C7C80000520F
(1753981439.465255) can0 596#2D8A00003900171A
(1753981439.465507) can0 597#0573000000000000
(1753981439.465755) can0 598#00000000C368F112
(1753981439.466006) can0 599#0800000000000000
(1753981439.466256) can0 59C#0000000000000000
(1753981439.466509) can0 59E#00000000520F0000
(1753981439.466781) can0 5A3#4F0000008C7D8C7D
(1753981439.467028) can0 5D5#000000A4C8C80015
(1753981439.467281) can0 5D6#C7C80000171A225A
(1753981439.467527) can0 5D7#0280000000000000
(1753981439.467630) can0 5D8#41AA15007300520F
(1753981439.542027) can0 7E4#0322010600000000
(1753981439.550070) can0 7EC#101B620106FFFFFF
(1753981439.550280) can0 7E4#3000000000000000
(1753981439.560073) can0 7EC#21FF1900F0000000
(1753981439.563398) can0 594#241E2823E6A50000
(1753981439.563634) can0 491#3900000000000004
(1753981439.563883) can0 493#000D306900003A02
(1753981439.564135) can0 497#140000B400000000
(1753981439.564384) can0 498#0000000000000000
(1753981439.564634) can0 4DD#0000000000000100
(1753981439.564757) can0 4DE#00F11900F0D43E00
(1753981439.565009) can0 4E2#22014F010000D19E
(1753981439.565260) can0 542#AA1A00000000FFFF
(1753981439.565509) can0 595#1900C7C80000510F
(1753981439.565759) can0 596#3B8A00003900171A
(1753981439.566010) can0 597#8573000000000000
(1753981439.566259) can0 598#00000000C368F112
(1753981439.566508) can0 599#0800000000000000
(1753981439.566759) can0 59C#0000000000000000
(1753981439.567008) can0 59E#00000000510F0000
(1753981439.567259) can0 5A3#4F0000008C7D8C7D
(1753981439.567510) can0 5D5#000000A4C8C80015
(1753981439.567634) can0 5D6#C7C80000171A225A
(1753981439.567884) can0 5D7#0280000000000000
(1753981439.568134) can0 5D8#41AA15007300510F
(1753981439.570013) can0 7EC#2200000000010000
(1753981439.580026) can0 7EC#23B400081529EA00
(1753981439.613275) can0 7E4#0322010500000000
(1753981439.620067) can0 7EC#102E620105003FFF
(1753981439.620277) can0 7E4#3000000000000000
(1753981439.630044) can0 7EC#2190000000000000
(1753981439.640077) can0 7EC#220000198A99191E
(1753981439.650075) can0 7EC#23242328000164F1
(1753981439.660029) can0 7EC#24AA03E800001100
(1753981439.663411) can0 594#241E2823E6A50000
(1753981439.663636) can0 491#3900000000000004
(1753981439.663890) can0 493#000D306900003A02
(1753981439.664139) can0 4DD#0000000000000100
(1753981439.664260) can0 4DE#00F11900F0D43E00
(1753981439.664642) can0 4E2#22014F010000D19E
(1753981439.664758) can0 542#AA1A00000000FFFF
(1753981439.665012) can0 595#1900C7C80000510F
(1753981439.665257) can0 596#838A00003900171A
(1753981439.665531) can0 597#0573000000000000
(1753981439.665781) can0 598#00000000C368F112
(1753981439.666029) can0 599#0800000000000000
(1753981439.666281) can0 59C#0000000000000000
(1753981439.666531) can0 59E#00000000510F0000
(1753981439.666779) can0 5A3#4F0000008C7D8C7D
(1753981439.667027) can0 5D5#000000A4C8C80015
(1753981439.667276) can0 5D6#C7C80000171A3BB3
(1753981439.667528) can0 5D7#0280000000000000
(1753981439.667652) can0 5D8#41AA15007300510F
(1753981439.670033) can0 7EC#25AA0000C8C80100
(1753981439.680073) can0 7EC#261200000000AAAA
(1753981439.727042) can0 7E4#0322010100000000
(1753981439.735052) can0 7EC#103E620101FFF7E7
(1753981439.735289) can0 7E4#3000000000000000
(1753981439.745029) can0 7EC#21FFA50000000007
(1753981439.755019) can0 7EC#2200000F511A1718
(1753981439.763429) can0 594#241E2823E6A50000
(1753981439.763629) can0 491#3900000000000004
(1753981439.763896) can0 493#000D306900003A02
(1753981439.764145) can0 4DD#0000000000000100
(1753981439.764269) can0 4DE#00F11900F0D43E00
(1753981439.764631) can0 4E2#22014F010000D19E
(1753981439.764803) can0 542#AA1A00000000FFFF
(1753981439.765041) can0 595#1900C7C80000510F
(1753981439.765272) can0 596#918A00003900171A
(1753981439.765518) can0 597#8573000000000000
(1753981439.765770) can0 598#00000000C368F112
(1753981439.766018) can0 599#0800000000000000
(1753981439.766271) can0 59C#0000000000000000
(1753981439.766519) can0 59E#00000000510F0000
(1753981439.766769) can0 5A3#4F0000008C7D8C7D
(1753981439.767019) can0 5D5#000000A4C8C80015
(1753981439.767268) can0 5D6#C7C80000171A3BB3
(1753981439.767393) can0 5D7#0280000000000000
(1753981439.767646) can0 5D8#41AA15007300510F
(1753981439.767895) can0 7EC#23171719000019C8
(1753981439.775022) can0 7EC#2442C73800008A00
(1753981439.785019) can0 7EC#25033514000323BB
(1753981439.795055) can0 7EC#2600012B2200011D
(1753981439.805056) can0 7EC#274000C76CA00119
(1753981439.815031) can0 7EC#28997FFF7FFF01E9
(1753981439.863429) can0 594#241E2823E6A50000
(1753981439.863653) can0 491#3900000000000004
(1753981439.863894) can0 493#000D306900003A02
(1753981439.864147) can0 4DD#0000000000000100
(1753981439.864393) can0 4DE#00F11900F0D43E00
(1753981439.864647) can0 4E2#22014F010000D19E
(1753981439.864775) can0 542#AA1A00000000FFFF
(1753981439.865021) can0 595#1900C7C80000520F
(1753981439.865270) can0 596#218A00003900171A
(1753981439.865518) can0 597#0573000000000000
(1753981439.865768) can0 598#00000000C368F112
(1753981439.866022) can0 599#0800000000000000
(1753981439.866271) can0 59C#0000000000000000
(1753981439.866520) can0 59E#00000000520F0000
(1753981439.866769) can0 5A3#4F0000008C7D8C7D
(1753981439.867022) can0 5D5#000000A4C8C80015
(1753981439.867270) can0 5D6#C7C80000171A915A
(1753981439.867527) can0 5D7#0280000000000000
(1753981439.867768) can0 5D8#41AA15007300520F
(1753981439.874532) can0 7E4#0322010600000000
(1753981439.880054) can0 7EC#101B620106FFFFFF
(1753981439.880271) can0 7E4#3000000000000000
(1753981439.890051) can0 7EC#21FF1900F0000000
(1753981439.900024) can0 7EC#2200000000010000
(1753981439.910048) can0 7EC#23B400081529EA00
(1753981439.941405) can0 7E4#0322010500000000
(1753981439.950057) can0 7EC#102E620105003FFF
(1753981439.950291) can0 7E4#3000000000000000
(1753981439.960036) can0 7EC#2190000000000000
(1753981439.963403) can0 594#241E2823E6A50000
(1753981439.963635) can0 491#3900000000000004
(1753981439.963884) can0 493#000D306900003A02
(1753981439.964135) can0 4DD#0000000000000100
(1753981439.964385) can0 4DE#00F11900F0D43E00
(1753981439.964634) can0 4E2#22014F010000D19E
(1753981439.964760) can0 542#AA1A00000000FFFF
(1753981439.965013) can0 595#1900C7C80000520F
(1753981439.965261) can0 596#228A00003900171A
(1753981439.965510) can0 597#8573000000000000
(1753981439.965760) can0 598#00000000C368F112
(1753981439.966011) can0 599#0800000000000000
(1753981439.966259) can0 59C#0000000000000000
(1753981439.966509) can0 59E#00000000520F0000
(1753981439.966760) can0 5A3#4F0000008C7D8C7D
(1753981439.967009) can0 5D5#000000A4C8C80015
(1753981439.967260) can0 5D6#C7C80000171A915A
(1753981439.967511) can0 5D7#0280000000000000
(1753981439.967760) can0 5D8#41AA15007300520F
(1753981439.970021) can0 7EC#220000198A99191E
(1753981439.980063) can0 7EC#23242328000164F1
(1753981439.990059) can0 7EC#24AA03E800001100
(1753981440.000055) can0 7EC#25AA0000C8C80100
(1753981440.010038) can0 7EC#261200000000AAAA
(1753981440.048932) can0 7E4#0322010100000000
(1753981440.055038) can0 7EC#103E620101FFF7E7
(1753981440.055272) can0 7E4#3000000000000000
(1753981440.063432) can0 594#241E2823E6A50000
(1753981440.063668) can0 491#3900000000000004
(1753981440.063916) can0 493#000D306900003A02
(1753981440.064168) can0 4DD#0000000000000100
(1753981440.064416) can0 4DE#00F11900F0D43E00
(1753981440.064667) can0 4E2#22014F010000D19E
(1753981440.064775) can0 542#AA1A00000000FFFF
(1753981440.065025) can0 595#1900C7C80000510F
(1753981440.065274) can0 596#2D8A00003900171A
(1753981440.065522) can0 597#0573000000000000
(1753981440.065771) can0 598#00000000C368F112
(1753981440.066009) can0 599#0800000000000000
(1753981440.066293) can0 59C#0000000000000000
(1753981440.066543) can0 59E#00000000510F0000
(1753981440.066790) can0 5A3#4F0000008C7D8C7D
(1753981440.067022) can0 5D5#000000A4C8C80015
(1753981440.067271) can0 5D6#C7C80000171A22B3
(1753981440.067523) can0 5D7#0280000000000000
(1753981440.067774) can0 5D8#41AA15007300510F
(1753981440.067903) can0 7EC#21FFA50000000007
(1753981440.075061) can0 7EC#2200000F511A1718
(1753981440.085056) can0 7EC#23171719000019C8
(1753981440.095058) can0 7EC#2442C74B00008A00
(1753981440.105056) can0 7EC#25033514000323BB
(1753981440.115059) can0 7EC#2600012B2200011D
(1753981440.125030) can0 7EC#274000C76CA00119
(1753981440.135056) can0 7EC#28997FFF7FFF01E9
(1753981440.163426) can0 594#241E2823E6A50000
(1753981440.163668) can0 491#3900000000000004
(1753981440.163917) can0 493#000D306900003A02
(1753981440.164149) can0 4DD#0000000000000100
(1753981440.164399) can0 4DE#00F11900F0D43E00
(1753981440.164648) can0 4E2#22014F010000D19E
(1753981440.164787) can0 542#AA1A00000000FFFF
(1753981440.165025) can0 595#1900C7C80000520F
(1753981440.165274) can0 596#3B8A00003900171A
(1753981440.165522) can0 597#8573000000000000
(1753981440.165772) can0 598#00000000C368F112
(1753981440.166011) can0 599#0800000000000000
(1753981440.166275) can0 59C#0000000000000000
(1753981440.166522) can0 59E#00000000520F0000
(1753981440.166778) can0 5A3#4F0000008C7D8C7D
(1753981440.167024) can0 5D5#000000A4C8C80015
(1753981440.167273) can0 5D6#C7C80000171A22B3
(1753981440.167522) can0 5D7#0280000000000000
(1753981440.167648) can0 5D8#41AA15007300520F
(1753981440.177663) can0 7E4#0322010600000000
(1753981440.185030) can0 7EC#101B620106FFFFFF
(1753981440.185314) can0 7E4#3000000000000000
(1753981440.195042) can0 7EC#21FF1900F0000000
(1753981440.205040) can0 7EC#2200000000010000
(1753981440.215039) can0 7EC#23B400081529EA00
(1753981440.243913) can0 7E4#0322010500000000
(1753981440.250038) can0 7EC#102E620105003FFF
(1753981440.250268) can0 7E4#3000000000000000
(1753981440.260076) can0 7EC#2190000000000000
(1753981440.263406) can0 594#241E2823E6A50000
(1753981440.263639) can0 491#3900000000000004
(1753981440.263891) can0 493#000D306900003A02
(1753981440.264143) can0 4DD#0000000000000100
(1753981440.264393) can0 4DE#00F11900F0D43E00
(1753981440.264641) can0 4E2#22014F010000D19E
(1753981440.264764) can0 542#AA1A00000000FFFF
(1753981440.265017) can0 595#1900C7C80000510F
(1753981440.265268) can0 596#838A00003900171A
(1753981440.265519) can0 597#0573000000000000
(1753981440.265768) can0 598#00000000C368F112
(1753981440.266017) can0 599#0800000000000000
(1753981440.266269) can0 59C#0000000000000000
(1753981440.266518) can0 59E#00000000510F0000
(1753981440.266768) can0 5A3#4F0000008C7D8C7D
(1753981440.267018) can0 5D5#000000A4C8C80015
(1753981440.267267) can0 5D6#C7C80000171A3B5A
(1753981440.267517) can0 5D7#0280000000000000
(1753981440.267642) can0 5D8#41AA15007300510F
(1753981440.270038) can0 7EC#220000198A99191E
(1753981440.280080) can0 7EC#23242328000164F1
(1753981440.290030) can0 7EC#24AA03E800001100
(1753981440.300036) can0 7EC#25AA0000C8C80100
(1753981440.310041) can0 7EC#261200000000AAAA
(1753981440.363405) can0 594#241E2823E6A50000
(1753981440.363639) can0 491#3900000000000004
(1753981440.363888) can0 493#000D306900003A02
(1753981440.364140) can0 4DD#0000000000000100
(1753981440.364391) can0 4DE#00F11900F0D43E00
(1753981440.364640) can0 4E2#22014F010000D19E
(1753981440.364765) can0 542#AA1A00000000FFFF
(1753981440.365016) can0 595#1900C7C80000510F
(1753981440.365265) can0 596#918A00003900171A
(1753981440.365515) can0 597#8573000000000000
(1753981440.365765) can0 598#00000000C368F112
(1753981440.366014) can0 599#0800000000000000
(1753981440.366265) can0 59C#0000000000000000
(1753981440.366515) can0 59E#00000000510F0000
(1753981440.366767) can0 5A3#4F0000008C7D8C7D
(1753981440.367015) can0 5D5#000000A4C8C80015
(1753981440.367267) can0 5D6#C7C80000171A3B5A
(1753981440.367526) can0 5D7#0280000000000000
(1753981440.367778) can0 5D8#41AA15007300510F
(1753981440.372710) can0 7E4#0322010100000000
(1753981440.380040) can0 7EC#103E620101FFF7E7
(1753981440.380269) can0 7E4#3000000000000000
(1753981440.390063) can0 7EC#21FFA50000000007
(1753981440.400050) can0 7EC#2200000F511A1718
(1753981440.410034) can0 7EC#23171719000019C8
(1753981440.420032) can0 7EC#2442C73800008A00
(1753981440.430031) can0 7EC#25033514000323BB
(1753981440.440088) can0 7EC#2600012B2200011D
(1753981440.450086) can0 7EC#274000C76CA00119
(1753981440.460046) can0 7EC#28997FFF7FFF01E9
(1753981440.463455) can0 594#241E2823E6A50000
(1753981440.463681) can0 491#3900000000000004
(1753981440.463942) can0 493#000D306900003A02
(1753981440.464143) can0 4DD#0000000000000100
(1753981440.464392) can0 4DE#00F11900F0D43E00
(1753981440.464662) can0 4E2#22014F010000D19E
(1753981440.464768) can0 542#AA1A00000000FFFF
(1753981440.465067) can0 595#1900C7C80000520F
(1753981440.465318) can0 596#218A00003900171A
(1753981440.465536) can0 597#0573000000000000
(1753981440.465788) can0 598#00000000C368F112
(1753981440.466035) can0 599#0800000000000000
(1753981440.466286) can0 59C#0000000000000000
(1753981440.466536) can0 59E#00000000520F0000
(1753981440.466788) can0 5A3#4F0000008C7D8C7D
(1753981440.467040) can0 5D5#000000A4C8C80015
(1753981440.467287) can0 5D6#C7C80000171A91B3
(1753981440.467539) can0 5D7#0280000000000000
(1753981440.467787) can0 5D8#41AA15007300520F
(1753981440.563462) can0 594#241E2823E6A50000
(1753981440.563646) can0 491#3900000000000004
(1753981440.563911) can0 493#000D306900003A02
(1753981440.564162) can0 497#220000B400000000
(1753981440.564413) can0 498#0000000000000000
(1753981440.564644) can0 4DD#0000000000000100
(1753981440.564947) can0 4DE#00F11900F0D43E00
(1753981440.565068) can0 4E2#22014F010000D19E
(1753981440.565321) can0 542#AA1A00000000FFFF
(1753981440.565570) can0 595#1900C7C80000520F
(1753981440.565820) can0 596#228A00003900171A
(1753981440.566040) can0 597#8573000000000000
(1753981440.566287) can0 598#00000000C368F112
(1753981440.566540) can0 599#0800000000000000
(1753981440.566789) can0 59C#0000000000000000
(1753981440.567040) can0 59E#00000000520F0000
(1753981440.567288) can0 5A3#4F0000008C7D8C7D
(1753981440.567538) can0 5D5#000000A4C8C80015
(1753981440.567787) can0 5D6#C7C80000171A91B3
(1753981440.568036) can0 5D7#0280000000000000
(1753981440.568288) can0 5D8#41AA15007300520F
(1753981440.663410) can0 594#241E2823E6A50000
(1753981440.663644) can0 491#3900000000000004
(1753981440.663892) can0 493#000D306900003A02
(1753981440.664147) can0 4DD#0000000000000100
(1753981440.664397) can0 4DE#00F11900F0D43E00
(1753981440.664644) can0 4E2#22014F010000D19E
(1753981440.664770) can0 542#AA1A00000000FFFF
(1753981440.665019) can0 595#1900C7C80000520F
(1753981440.665273) can0 596#2D8A00003900171A
(1753981440.665522) can0 597#0573000000000000
(1753981440.665770) can0 598#00000000C368F112
(1753981440.666021) can0 599#0800000000000000
(1753981440.666272) can0 59C#0000000000000000
(1753981440.666521) can0 59E#00000000520F0000
(1753981440.666772) can0 5A3#4F0000008C7D8C7D
(1753981440.667020) can0 5D5#000000A4C8C80015
(1753981440.667271) can0 5D6#C7C80000171A225A
(1753981440.667520) can0 5D7#0280000000000000
(1753981440.667771) can0 5D8#41AA15007300520F
(1753981440.703919) can0 7E4#0322010600000000
(1753981440.710051) can0 7EC#101B620106FFFFFF
(1753981440.710272) can0 7E4#3000000000000000
(1753981440.720037) can0 7EC#21FF1900F0000000
(1753981440.730050) can0 7EC#2200000000010000
(1753981440.740032) can0 7EC#23B400081529EA00
(1753981440.763411) can0 594#241E2823E6A50000
(1753981440.763646) can0 491#3900000000000004
(1753981440.763926) can0 493#000D306900003A02
(1753981440.764166) can0 4DD#0000000000000100
(1753981440.764415) can0 4DE#00F11900F0D43E00
(1753981440.764667) can0 4E2#22014F010000D19E
(1753981440.764882) can0 542#AA1A00000000FFFF
(1753981440.765043) can0 595#1900C7C80000510F
(1753981440.765273) can0 596#3B8A00003900171A
(1753981440.765544) can0 597#8573000000000000
(1753981440.765791) can0 598#00000000C368F112
(1753981440.766041) can0 599#0800000000000000
(1753981440.766292) can0 59C#0000000000000000
(1753981440.766542) can0 59E#00000000510F0000
(1753981440.766790) can0 5A3#4F0000008C7D8C7D
(1753981440.767040) can0 5D5#000000A4C8C80015
(1753981440.767287) can0 5D6#C7C80000171A225A
(1753981440.767540) can0 5D7#0280000000000000
(1753981440.767665) can0 5D8#41AA15007300510F
(1753981440.781459) can0 7E4#0322010500000000
(1753981440.790039) can0 7EC#102E620105003FFF
(1753981440.790271) can0 7E4#3000000000000000
(1753981440.800039) can0 7EC#2190000000000000
(1753981440.810041) can0 7EC#220000198A99191E
(1753981440.820050) can0 7EC#23242328000164F1
(1753981440.830050) can0 7EC#24AA03E800001100
(1753981440.840033) can0 7EC#25AA0000C8C80100
(1753981440.850055) can0 7EC#261200000000AAAA
(1753981440.863462) can0 594#241E2823E6A50000
(1753981440.863653) can0 491#3900000000000004
(1753981440.863916) can0 493#000D306900003A02
(1753981440.864165) can0 4DD#0000000000000100
(1753981440.864414) can0 4DE#00F11900F0D43E00
(1753981440.864667) can0 4E2#22014F010000D19E
(1753981440.864797) can0 542#AA1A00000000FFFF
(1753981440.865075) can0 595#1900C7C80000510F
(1753981440.865318) can0 596#838A00003900171A
(1753981440.865523) can0 597#0573000000000000
(1753981440.865823) can0 598#00000000C368F112
(1753981440.866072) can0 599#0800000000000000
(1753981440.866272) can0 59C#0000000000000000
(1753981440.866522) can0 59E#00000000510F0000
(1753981440.866774) can0 5A3#4F0000008C7D8C7D
(1753981440.867041) can0 5D5#000000A4C8C80015
(1753981440.867294) can0 5D6#C7C80000171A3BB3
(1753981440.867542) can0 5D7#0280000000000000
(1753981440.867790) can0 5D8#41AA15007300510F
(1753981440.889552) can0 7E4#0322010100000000
(1753981440.895076) can0 7EC#103E620101FFF7E7
(1753981440.895313) can0 7E4#3000000000000000
(1753981440.905084) can0 7EC#21FFA50000000007
(1753981440.915037) can0 7EC#2200000F511A1718
(1753981440.925044) can0 7EC#23171719000019C8
(1753981440.935042) can0 7EC#2442C73800008A00
(1753981440.945044) can0 7EC#25033514000323BB
(1753981440.955090) can0 7EC#2600012B2200011D
(1753981440.963458) can0 594#241E2823E6A50000
(1753981440.963695) can0 491#3900000000000004
(1753981440.963948) can0 493#000D306900003A02
(1753981440.964149) can0 4DD#0000000000000100
(1753981440.964399) can0 4DE#00F11900F0D43E00
(1753981440.964648) can0 4E2#22014F010000D19E
(1753981440.964793) can0 542#AA1A00000000FFFF
(1753981440.965043) can0 595#1900C7C80000510F
(1753981440.965291) can0 596#918A00003900171A
(1753981440.965543) can0 597#8573000000000000
(1753981440.965790) can0 598#00000000C368F112
(1753981440.966039) can0 599#0800000000000000
(1753981440.966290) can0 59C#0000000000000000
(1753981440.966540) can0 59E#00000000510F0000
(1753981440.966794) can0 5A3#4F0000008C7D8C7D
(1753981440.967044) can0 5D5#000000A4C8C80015
(1753981440.967290) can0 5D6#C7C80000171A3BB3
(1753981440.967542) can0 5D7#0280000000000000
(1753981440.967667) can0 5D8#41AA15007300510F
(1753981440.967917) can0 7EC#274000C76CA10119
(1753981440.975084) can0 7EC#28997FFF7FFF01E9
(1753981441.063416) can0 594#241E2823E6A50000
(1753981441.063669) can0 491#3900000000000004
(1753981441.063917) can0 493#000D306900003A02
(1753981441.064154) can0 4DD#0000000000000100
(1753981441.064397) can0 4DE#00F11900F0D43E00
(1753981441.064682) can0 4E2#22014F010000D19E
(1753981441.064795) can0 542#AA1A00000000FFFF
(1753981441.065071) can0 595#1900C7C80000510F
(1753981441.065324) can0 596#218A00003900171A
(1753981441.065572) can0 597#0573000000000000
(1753981441.065822) can0 598#00000000C368F112
(1753981441.066075) can0 599#0800000000000000
(1753981441.066321) can0 59C#0000000000000000
(1753981441.066572) can0 59E#00000000510F0000
(1753981441.066821) can0 5A3#4F0000008C7D8C7D
(1753981441.067044) can0 5D5#000000A4C8C80015
(1753981441.067292) can0 5D6#C7C80000171A915A
(1753981441.067543) can0 5D7#0280000000000000
(1753981441.067795) can0 5D8#41AA15007300510F
(1753981441.070200) can0 7E4#0322010600000000
(1753981441.080053) can0 7EC#101B620106FFFFFF
(1753981441.080275) can0 7E4#3000000000000000
(1753981441.090087) can0 7EC#21FF1900F0000000
(1753981441.100088) can0 7EC#2200000000010000
(1753981441.110043) can0 7EC#23B400081529EA00
(1753981441.147713) can0 7E4#0322010500000000
(1753981441.155084) can0 7EC#102E620105003FFF
(1753981441.155310) can0 7E4#3000000000000000
(1753981441.163435) can0 594#241E2823E6A50000
(1753981441.163671) can0 491#3900000000000004
(1753981441.163919) can0 493#000D306900003A02
(1753981441.164171) can0 4DD#0000000000000100
(1753981441.164420) can0 4DE#00F11900F0D43E00
(1753981441.164685) can0 4E2#22014F010000D19E
(1753981441.164773) can0 542#AA1A00000000FFFF
(1753981441.165045) can0 595#1900C7C80000510F
(1753981441.165297) can0 596#228A00003900171A
(1753981441.165543) can0 597#8573000000000000
(1753981441.165797) can0 598#00000000C368F112
(1753981441.166045) can0 599#0800000000000000
(1753981441.166292) can0 59C#0000000000000000
(1753981441.166544) can0 59E#00000000510F0000
(1753981441.166802) can0 5A3#4F0000008C7D8C7D
(1753981441.167045) can0 5D5#000000A4C8C80015
(1753981441.167296) can0 5D6#C7C80000171A915A
(1753981441.167564) can0 5D7#0280000000000000
(1753981441.167795) can0 5D8#41AA15007300510F
(1753981441.168045) can0 7EC#2190000000000000
(1753981441.175035) can0 7EC#220000198A99191E
(1753981441.185091) can0 7EC#23242328000164F1
(1753981441.195054) can0 7EC#24AA03E800001100
(1753981441.205067) can0 7EC#25AA0000C8C80100
(1753981441.215087) can0 7EC#261200000000AAAA
(1753981441.256464) can0 7E4#0322010100000000
(1753981441.263463) can0 594#241E2823E6A50000
(1753981441.263675) can0 491#3900000000000004
(1753981441.263947) can0 493#000D306900003A02
(1753981441.264172) can0 4DD#0000000000000100
(1753981441.264422) can0 4DE#00F11900F0D43E00
(1753981441.264683) can0 4E2#22014F010000D19E
(1753981441.264951) can0 542#AA1A00000000FFFF
(1753981441.265027) can0 595#1900C7C80000510F
(1753981441.265328) can0 596#2D8A00003900171A
(1753981441.265577) can0 597#0573000000000000
(1753981441.265795) can0 598#00000000C368F112
(1753981441.266044) can0 599#0800000000000000
(1753981441.266296) can0 59C#0000000000000000
(1753981441.266549) can0 59E#00000000510F0000
(1753981441.266796) can0 5A3#4F0000008C7D8C7D
(1753981441.267047) can0 5D5#000000A4C8C80015
(1753981441.267296) can0 5D6#C7C80000171A22B3
(1753981441.267545) can0 5D7#0280000000000000
(1753981441.267793) can0 5D8#41AA15007300510F
(1753981441.268043) can0 7EC#103E620101FFF7E7
(1753981441.268295) can0 7E4#3000000000000000
(1753981441.275060) can0 7EC#21FFA50000000007
(1753981441.285044) can0 7EC#2200000F511A1718
(1753981441.295063) can0 7EC#23171719000019C8
(1753981441.305040) can0 7EC#243BC73800008A00
(1753981441.315041) can0 7EC#25033514000323BB
(1753981441.325060) can0 7EC#2600012B2200011D
(1753981441.335060) can0 7EC#274000C76CA10119
(1753981441.345046) can0 7EC#28997FFF7FFF01E9
(1753981441.363434) can0 594#241E2823E6A50000
(1753981441.363674) can0 491#3900000000000004
(1753981441.363923) can0 493#000D306900003A02
(1753981441.364171) can0 4DD#0000000000000100
(1753981441.364421) can0 4DE#00F11900F0D43E00
(1753981441.364684) can0 4E2#22014F010000D19E
(1753981441.364811) can0 542#AA1A00000000FFFF
(1753981441.365076) can0 595#1900C7C80000510F
(1753981441.365322) can0 596#3B8A00003900171A
(1753981441.365526) can0 597#8573000000000000
(1753981441.365775) can0 598#00000000C368F112
(1753981441.366075) can0 599#0800000000000000
(1753981441.366324) can0 59C#0000000000000000
(1753981441.366530) can0 59E#00000000510F0000
(1753981441.366798) can0 5A3#4F0000008C7D8C7D
(1753981441.367046) can0 5D5#000000A4C8C80015
(1753981441.367297) can0 5D6#C7C80000171A22B3
(1753981441.367547) can0 5D7#0280000000000000
(1753981441.367797) can0 5D8#41AA15007300510F
(1753981441.401469) can0 7E4#0322010600000000
(1753981441.410090) can0 7EC#101B620106FFFFFF
(1753981441.410278) can0 7E4#3000000000000000
(1753981441.420092) can0 7EC#21FF1900F0000000
(1753981441.430058) can0 7EC#2200000000010000
(1753981441.440046) can0 7EC#23B400081529EA00
(1753981441.463466) can0 594#241E2823E6A50000
(1753981441.463703) can0 491#3900000000000004
(1753981441.463952) can0 493#000D306900003A02
(1753981441.464202) can0 4DD#0000000000000100
(1753981441.464452) can0 4DE#00F11900F0D43E00
(1753981441.464710) can0 4E2#22014F010000D19E
(1753981441.464954) can0 542#AA1A00000000FFFF
(1753981441.465075) can0 595#1900C7C80000520F
(1753981441.465298) can0 596#838A00003900171A
(1753981441.465546) can0 597#0573000000000000
(1753981441.465798) can0 598#00000000C368F112
(1753981441.466047) can0 599#0800000000000000
(1753981441.466296) can0 59C#0000000000000000
(1753981441.466547) can0 59E#00000000520F0000
(1753981441.466796) can0 5A3#4F0000008C7D8C7D
(1753981441.467049) can0 5D5#000000A4C8C80015
(1753981441.467299) can0 5D6#C7C80000171A3B5A
(1753981441.467580) can0 5D7#0280000000000000
(1753981441.467830) can0 5D8#41AA15007300520F
(1753981441.477087) can0 7E4#0322010500000000
(1753981441.485042) can0 7EC#102E620105003FFF
(1753981441.485329) can0 7E4#3000000000000000
(1753981441.495048) can0 7EC#2190000000000000
(1753981441.505048) can0 7EC#220000198A99191E
(1753981441.515090) can0 7EC#23242328000164F1
(1753981441.525056) can0 7EC#24AA03E800001100
(1753981441.535094) can0 7EC#25AA0000C8C80100
(1753981441.545044) can0 7EC#261200000000AAAA
(1753981441.563416) can0 594#241E2823E6A50000
(1753981441.563649) can0 491#3900000000000004
(1753981441.563899) can0 493#000D306900003A02
(1753981441.564149) can0 497#110000B400000000
(1753981441.564399) can0 498#0000000000000000
(1753981441.564657) can0 4DD#0000000000000100
(1753981441.564956) can0 4DE#00F11900F0D43E00
(1753981441.565201) can0 4E2#22014F010000D19E
(1753981441.565424) can0 542#AA1A00000000FFFF
(1753981441.565550) can0 595#1900C7C80000510F
(1753981441.565799) can0 596#918A00003900171A
(1753981441.566050) can0 597#8573000000000000
(1753981441.566299) can0 598#00000000C368F112
(1753981441.566551) can0 599#0800000000000000
(1753981441.566798) can0 59C#0000000000000000
(1753981441.567049) can0 59E#00000000510F0000
(1753981441.567297) can0 5A3#4F0000008C7D8C7D
(1753981441.567550) can0 5D5#000000A4C8C80015
(1753981441.567797) can0 5D6#C7C80000171A3B5A
(1753981441.568049) can0 5D7#0280000000000000
(1753981441.568299) can0 5D8#41AA15007300510F
(1753981441.580181) can0 7E4#0322010100000000
(1753981441.590089) can0 7EC#103E620101FFF7E7
(1753981441.590283) can0 7E4#3000000000000000
(1753981441.600063) can0 7EC#21FFA50000000007
(1753981441.610045) can0 7EC#2200000F521A1718
(1753981441.620093) can0 7EC#23171719000019C8
(1753981441.630090) can0 7EC#2442C73800008A00
(1753981441.640090) can0 7EC#25033514000323BB
(1753981441.650049) can0 7EC#2600012B2200011D
(1753981441.660053) can0 7EC#274000C76CA20119
(1753981441.663422) can0 594#241E2823E6A50000
(1753981441.663651) can0 491#3900000000000004
(1753981441.663904) can0 493#000D306900003A02
(1753981441.664153) can0 4DD#0000000000000100
(1753981441.664404) can0 4DE#00F11900F0D43E00
(1753981441.664653) can0 4E2#22014F010000D19E
(1753981441.664903) can0 542#AA1A00000000FFFF
(1753981441.665153) can0 595#1900C7C80000520F
(1753981441.665277) can0 596#218A00003900171A
(1753981441.665528) can0 597#0573000000000000
(1753981441.665778) can0 598#00000000C368F112
(1753981441.666029) can0 599#0800000000000000
(1753981441.666278) can0 59C#0000000000000000
(1753981441.666529) can0 59E#00000000520F0000
(1753981441.666777) can0 5A3#4F0000008C7D8C7D
(1753981441.667028) can0 5D5#000000A4C8C80015
(1753981441.667277) can0 5D6#C7C80000171A91B3
(1753981441.667530) can0 5D7#0280000000000000
(1753981441.667778) can0 5D8#41AA15007300520F
(1753981441.670031) can0 7EC#28997FFF7FFF01E9
(1753981441.757043) can0 7E4#0322010600000000
(1753981441.763430) can0 594#241E2823E6A50000
(1753981441.763655) can0 491#3900000000000004
(1753981441.763910) can0 493#000D306900003A02
(1753981441.764164) can0 4DD#0000000000000100
(1753981441.764410) can0 4DE#00F11900F0D43E00
(1753981441.764654) can0 4E2#22014F010000D19E
(1753981441.764905) can0 542#AA1A00000000FFFF
(1753981441.765060) can0 595#1900C7C80000520F
(1753981441.765302) can0 596#228A00003900171A
(1753981441.765551) can0 597#8573000000000000
(1753981441.765800) can0 598#00000000C368F112
(1753981441.766051) can0 599#0800000000000000
(1753981441.766300) can0 59C#0000000000000000
(1753981441.766550) can0 59E#00000000520F0000
(1753981441.766798) can0 5A3#4F0000008C7D8C7D
(1753981441.767051) can0 5D5#000000A4C8C80015
(1753981441.767301) can0 5D6#C7C80000171A91B3
(1753981441.767552) can0 5D7#0280000000000000
(1753981441.767802) can0 5D8#41AA15007300520F
(1753981441.768050) can0 7EC#101B620106FFFFFF
(1753981441.768301) can0 7E4#3000000000000000
(1753981441.775088) can0 7EC#21FF1900F0000000
(1753981441.785044) can0 7EC#2200000000010000
(1753981441.795053) can0 7EC#23B400081529EA00
(1753981441.855172) can0 7E4#0322010500000000
(1753981441.863441) can0 594#241E2823E6A50000
(1753981441.863676) can0 491#3900000000000004
(1753981441.863926) can0 493#000D306900003A02
(1753981441.864178) can0 4DD#0000000000000100
(1753981441.864426) can0 4DE#00F11900F0D43E00
(1753981441.864653) can0 4E2#22014F010000D19E
(1753981441.864929) can0 542#AA1A00000000FFFF
(1753981441.865033) can0 595#1900C7C80000510F
(1753981441.865300) can0 596#2D8A00003900171A
(1753981441.865550) can0 597#0573000000000000
(1753981441.865782) can0 598#00000000C368F112
(1753981441.866030) can0 599#0800000000000000
(1753981441.866279) can0 59C#0000000000000000
(1753981441.866554) can0 59E#00000000510F0000
(1753981441.866802) can0 5A3#4F0000008C7D8C7D
(1753981441.867049) can0 5D5#000000A4C8C80015
(1753981441.867277) can0 5D6#C7C80000171A225A
(1753981441.867529) can0 5D7#0280000000000000
(1753981441.867779) can0 5D8#41AA15007300510F
(1753981441.868030) can0 7EC#102E620105003FFF
(1753981441.868282) can0 7E4#3000000000000000
(1753981441.875047) can0 7EC#2190000000000000
(1753981441.885049) can0 7EC#220000198A99191E
(1753981441.895098) can0 7EC#23242328000164F1
(1753981441.905067) can0 7EC#24AA03E800001100
(1753981441.915094) can0 7EC#25AA0000C8C80100
(1753981441.925045) can0 7EC#261200000000AAAA
(1753981441.963414) can0 594#241E2823E6A50000
(1753981441.963656) can0 491#3900000000000004
(1753981441.963905) can0 493#000D306900003A02
(1753981441.964156) can0 4DD#0000000000000100
(1753981441.964404) can0 4DE#00F11900F0D43E00
(1753981441.964653) can0 4E2#22014F010000D19E
(1753981441.964903) can0 542#AA1A00000000FFFF
(1753981441.965027) can0 595#1900C7C80000510F
(1753981441.965276) can0 596#3B8A00003900171A
(1753981441.965529) can0 597#8573000000000000
(1753981441.965778) can0 598#00000000C368F112
(1753981441.966030) can0 599#0800000000000000
(1753981441.966279) can0 59C#0000000000000000
(1753981441.966527) can0 59E#00000000510F0000
(1753981441.966782) can0 5A3#4F0000008C7D8C7D
(1753981441.967032) can0 5D5#000000A4C8C80015
(1753981441.967279) can0 5D6#C7C80000171A225A
(1753981441.967529) can0 5D7#0280000000000000
(1753981441.967777) can0 5D8#41AA15007300510F
(1753981441.970169) can0 7E4#0322010100000000
(1753981441.980044) can0 7EC#103E620101FFF7E7
(1753981441.980279) can0 7E4#3000000000000000
(1753981441.990044) can0 7EC#21FFA50000000007
(1753981442.000044) can0 7EC#2200000F511A1718
(1753981442.010047) can0 7EC#23171719000019C8
(1753981442.020046) can0 7EC#2442C73800008A00
(1753981442.030058) can0 7EC#25033514000323BB
(1753981442.040046) can0 7EC#2600012B2200011D
(1753981442.050050) can0 7EC#274000C76CA20119
(1753981442.060048) can0 7EC#28997FFF7FFF01E9
(1753981442.063419) can0 594#241E2823E6A50000
(1753981442.063654) can0 491#3900000000000004
(1753981442.063905) can0 493#000D306900003A02
(1753981442.064154) can0 4DD#0000000000000100
(1753981442.064405) can0 4DE#00F11900F0D43E00
(1753981442.064653) can0 4E2#22014F010000D19E
(1753981442.064906) can0 542#AA1A00000000FFFF
(1753981442.065032) can0 595#1900C7C80000510F
(1753981442.065279) can0 596#838A00003900171A
(1753981442.065529) can0 597#0573000000000000
(1753981442.065778) can0 598#00000000C368F112
(1753981442.066029) can0 599#0800000000000000
(1753981442.066280) can0 59C#0000000000000000
(1753981442.066528) can0 59E#00000000510F0000
(1753981442.066779) can0 5A3#4F0000008C7D8C7D
(1753981442.067030) can0 5D5#000000A4C8C80015
(1753981442.067279) can0 5D6#C7C80000171A3BB3
(1753981442.067531) can0 5D7#0280000000000000
(1753981442.067778) can0 5D8#41AA15007300510F
(1753981442.163442) can0 594#241E2823E6A50000
(1753981442.163658) can0 491#3900000000000004
(1753981442.163915) can0 493#000D306900003A02
(1753981442.164158) can0 4DD#0000000000000100
(1753981442.164411) can0 4DE#00F11900F0D43E00
(1753981442.164658) can0 4E2#22014F010000D19E
(1753981442.164908) can0 542#AA1A00000000FFFF
(1753981442.165158) can0 595#1900C7C80000510F
(1753981442.165279) can0 596#918A00003900171A
(1753981442.165532) can0 597#8573000000000000
(1753981442.165780) can0 598#00000000C368F112
(1753981442.166029) can0 599#0800000000000000
(1753981442.166280) can0 59C#0000000000000000
(1753981442.166530) can0 59E#00000000510F0000
(1753981442.166779) can0 5A3#4F0000008C7D8C7D
(1753981442.167029) can0 5D5#000000A4C8C80015
(1753981442.167279) can0 5D6#C7C80000171A3BB3
(1753981442.167530) can0 5D7#0280000000000000
(1753981442.167778) can0 5D8#41AA15007300510F
(1753981442.170175) can0 7E4#0322010600000000
(1753981442.180054) can0 7EC#101B620106FFFFFF
(1753981442.180279) can0 7E4#3000000000000000
(1753981442.190047) can0 7EC#21FF1900F0000000
(1753981442.200049) can0 7EC#2200000000010000
(1753981442.210077) can0 7EC#23B400081529EA00
(1753981442.263436) can0 594#241E2823E6A50000
(1753981442.263657) can0 491#3900000000000004
(1753981442.263909) can0 493#000D306900003A02
(1753981442.264157) can0 4DD#0000000000000100
(1753981442.264406) can0 4DE#00F11900F0D43E00
(1753981442.264660) can0 4E2#22014F010000D19E
(1753981442.264914) can0 542#AA1A00000000FFFF
(1753981442.265164) can0 595#1900C7C80000520F
(1753981442.265281) can0 596#218A00003900171A
(1753981442.265665) can0 597#0573000000000000
(1753981442.265780) can0 598#00000000C368F112
(1753981442.266033) can0 599#0800000000000000
(1753981442.266283) can0 59C#0000000000000000
(1753981442.266535) can0 59E#00000000520F0000
(1753981442.266781) can0 5A3#4F0000008C7D8C7D
(1753981442.267035) can0 5D5#000000A4C8C80015
(1753981442.267282) can0 5D6#C7C80000171A915A
(1753981442.267532) can0 5D7#0280000000000000
(1753981442.267782) can0 5D8#41AA15007300520F
(1753981442.282044) can0 7E4#0322010500000000
(1753981442.290052) can0 7EC#102E620105003FFF
(1753981442.290280) can0 7E4#3000000000000000
(1753981442.300060) can0 7EC#2190000000000000
(1753981442.310051) can0 7EC#220000198A99191E
(1753981442.320047) can0 7EC#23242328000164F1
(1753981442.330049) can0 7EC#24AA03E800001100
(1753981442.340048) can0 7EC#25AA0000C8C80100
(1753981442.350080) can0 7EC#261200000000AAAA
(1753981442.363464) can0 594#241E2823E6A50000
(1753981442.363662) can0 491#3900000000000004
(1753981442.363916) can0 493#000D306900003A02
(1753981442.364160) can0 4DD#0000000000000100
(1753981442.364414) can0 4DE#00F11900F0D43E00
(1753981442.364663) can0 4E2#22014F010000D19E
(1753981442.364909) can0 542#AA1A00000000FFFF
(1753981442.365164) can0 595#1900C7C80000520F
(1753981442.365282) can0 596#228A00003900171A
(1753981442.365532) can0 597#8573000000000000
(1753981442.365802) can0 598#00000000C368F112
(1753981442.366045) can0 599#0800000000000000
(1753981442.366294) can0 59C#0000000000000000
(1753981442.366543) can0 59E#00000000520F0000
(1753981442.366796) can0 5A3#4F0000008C7D8C7D
(1753981442.367044) can0 5D5#000000A4C8C80015
(1753981442.367297) can0 5D6#C7C80000171A915A
(1753981442.367545) can0 5D7#0280000000000000
(1753981442.367795) can0 5D8#41AA15007300520F
(1753981442.392709) can0 7E4#0322010100000000
(1753981442.400061) can0 7EC#103E620101FFF7E7
(1753981442.400296) can0 7E4#3000000000000000
(1753981442.410079) can0 7EC#21FFA50000000007
(1753981442.420056) can0 7EC#2200000F511A1718
(1753981442.430092) can0 7EC#23171719000019C8
(1753981442.440089) can0 7EC#2442C73800008A00
(1753981442.450086) can0 7EC#25033514000323BB
(1753981442.460056) can0 7EC#2600012B2200011D
(1753981442.463418) can0 594#241E2823E6A50000
(1753981442.463663) can0 491#3900000000000004
(1753981442.463912) can0 493#000D306900003A02
(1753981442.464163) can0 4DD#0000000000000100
(1753981442.464411) can0 4DE#00F11900F0D43E00
(1753981442.464659) can0 4E2#22014F010000D19E
(1753981442.464916) can0 542#AA1A00000000FFFF
(1753981442.465163) can0 595#1900C7C80000510F
(1753981442.465289) can0 596#2D8A00003900171A
(1753981442.465538) can0 597#0573000000000000
(1753981442.465790) can0 598#00000000C368F112
(1753981442.466040) can0 599#0800000000000000
(1753981442.466288) can0 59C#0000000000000000
(1753981442.466539) can0 59E#00000000510F0000
(1753981442.466788) can0 5A3#4F0000008C7D8C7D
(1753981442.467039) can0 5D5#000000A4C8C80015
(1753981442.467289) can0 5D6#C7C80000171A22B3
(1753981442.467538) can0 5D7#0280000000000000
(1753981442.467786) can0 5D8#41AA15007300510F
(1753981442.470083) can0 7EC#274000C76CA20119
(1753981442.480060) can0 7EC#28997FFF7FFF01E9
(1753981442.532692) can0 7E4#0322010600000000
(1753981442.540049) can0 7EC#101B620106FFFFFF
(1753981442.540283) can0 7E4#3000000000000000
(1753981442.550051) can0 7EC#21FF1900F0000000
(1753981442.560071) can0 7EC#2200000000010000
(1753981442.563427) can0 594#241E2823E6A50000
(1753981442.563662) can0 491#3900000000000004
(1753981442.563923) can0 493#000D306900003A02
(1753981442.564172) can0 497#140000B400000000
(1753981442.564420) can0 498#0000000000000000
(1753981442.564660) can0 4DD#0000000000000100
(1753981442.564955) can0 4DE#00F11900F0D43E00
(1753981442.565172) can0 4E2#22014F010000D19E
(1753981442.565423) can0 542#AA1A00000000FFFF
(1753981442.565674) can0 595#1900C7C80000520F
(1753981442.565795) can0 596#3B8A00003900171A
(1753981442.566055) can0 597#8573000000000000
(1753981442.566297) can0 598#00000000C368F112
(1753981442.566546) can0 599#0800000000000000
(1753981442.566799) can0 59C#0000000000000000
(1753981442.567050) can0 59E#00000000520F0000
(1753981442.567296) can0 5A3#4F0000008C7D8C7D
(1753981442.567547) can0 5D5#000000A4C8C80015
(1753981442.567797) can0 5D6#C7C80000171A22B3
(1753981442.568048) can0 5D7#0280000000000000
(1753981442.568298) can0 5D8#41AA15007300520F
(1753981442.570080) can0 7EC#23B400081529EA00
(1753981442.600839) can0 7E4#0322010500000000
(1753981442.610069) can0 7EC#102E620105003FFF
(1753981442.610290) can0 7E4#3000000000000000
(1753981442.620063) can0 7EC#2190000000000000
(1753981442.630104) can0 7EC#220000198A99191E
(1753981442.640056) can0 7EC#23242328000164F1
(1753981442.650055) can0 7EC#24AA03E800001100
(1753981442.660060) can0 7EC#25AA0000C8C80100
(1753981442.663427) can0 594#241E2823E6A50000
(1753981442.663660) can0 491#3900000000000004
(1753981442.663911) can0 493#000D306900003A02
(1753981442.664161) can0 4DD#0000000000000100
(1753981442.664411) can0 4DE#00F11900F0D43E00
(1753981442.664660) can0 4E2#22014F010000D19E
(1753981442.664911) can0 542#AA1A00000000FFFF
(1753981442.665035) can0 595#1900C7C80000510F
(1753981442.665283) can0 596#838A00003900171A
(1753981442.665535) can0 597#0573000000000000
(1753981442.665784) can0 598#00000000C368F112
(1753981442.666036) can0 599#0800000000000000
(1753981442.666288) can0 59C#0000000000000000
(1753981442.666535) can0 59E#00000000510F0000
(1753981442.666794) can0 5A3#4F0000008C7D8C7D
(1753981442.667048) can0 5D5#000000A4C8C80015
(1753981442.667298) can0 5D6#C7C80000171A3B5A
(1753981442.667548) can0 5D7#0280000000000000
(1753981442.667800) can0 5D8#41AA15007300510F
(1753981442.670048) can0 7EC#261200000000AAAA
(1753981442.708927) can0 7E4#0322010100000000
(1753981442.715090) can0 7EC#103E620101FFF7E7
(1753981442.715328) can0 7E4#3000000000000000
(1753981442.725081) can0 7EC#21FFA50000000007
(1753981442.735102) can0 7EC#2200000F511A1718
(1753981442.745056) can0 7EC#23171719000019C8
(1753981442.755055) can0 7EC#2442C74B00008A00
(1753981442.763435) can0 594#241E2823E6A50000
(1753981442.763662) can0 491#3900000000000004
(1753981442.763919) can0 493#000D306900003A02
(1753981442.764166) can0 4DD#0000000000000100
(1753981442.764416) can0 4DE#00F11900F0D43E00
(1753981442.764665) can0 4E2#22014F010000D19E
(1753981442.764913) can0 542#AA1A00000000FFFF
(1753981442.765161) can0 595#1900C7C80000510F
(1753981442.765285) can0 596#918A00003900171A
(1753981442.765661) can0 597#8573000000000000
(1753981442.765784) can0 598#00000000C368F112
(1753981442.766033) can0 599#0800000000000000
(1753981442.766284) can0 59C#0000000000000000
(1753981442.766533) can0 59E#00000000510F0000
(1753981442.766785) can0 5A3#4F0000008C7D8C7D
(1753981442.767034) can0 5D5#000000A4C8C80015
(1753981442.767285) can0 5D6#C7C80000171A3B5A
(1753981442.767535) can0 5D7#0280000000000000
(1753981442.767785) can0 5D8#41AA15007300510F
(1753981442.768035) can0 7EC#25033514000323BB
(1753981442.775052) can0 7EC#2600012B2200011D
(1753981442.785049) can0 7EC#274000C76CA30119
(1753981442.795054) can0 7EC#28997FFF7FFF01E9
(1753981442.827054) can0 7E4#0322010600000000
(1753981442.835056) can0 7EC#101B620106FFFFFF
(1753981442.835284) can0 7E4#3000000000000000
(1753981442.845049) can0 7EC#21FF1900F0000000
(1753981442.855053) can0 7EC#2200000000010000
(1753981442.863429) can0 594#241E2823E6A50000
(1753981442.863660) can0 491#3900000000000004
(1753981442.863912) can0 493#000D306900003A02
(1753981442.864160) can0 4DD#0000000000000100
(1753981442.864411) can0 4DE#00F11900F0D43E00
(1753981442.864660) can0 4E2#22014F010000D19E
(1753981442.864912) can0 542#AA1A00000000FFFF
(1753981442.865159) can0 595#1900C7C80000520F
(1753981442.865409) can0 596#218A00003900171A
(1753981442.865659) can0 597#0573000000000000
(1753981442.865783) can0 598#00000000C368F112
(1753981442.866033) can0 599#0800000000000000
(1753981442.866284) can0 59C#0000000000000000
(1753981442.866536) can0 59E#00000000520F0000
(1753981442.866786) can0 5A3#4F0000008C7D8C7D
(1753981442.867036) can0 5D5#000000A4C8C80015
(1753981442.867284) can0 5D6#C7C80000171A91B3
(1753981442.867534) can0 5D7#0280000000000000
(1753981442.867784) can0 5D8#41AA15007300520F
(1753981442.868035) can0 7EC#23B400081529EA00
(1753981442.907679) can0 7E4#0322010500000000
(1753981442.915054) can0 7EC#102E620105003FFF
(1753981442.915286) can0 7E4#3000000000000000
(1753981442.925050) can0 7EC#2190000000000000
(1753981442.935052) can0 7EC#220000198A99191E
(1753981442.945065) can0 7EC#23242328000164F1
(1753981442.955058) can0 7EC#24AA03E800001100
(1753981442.963427) can0 594#241E2823E6A50000
(1753981442.963661) can0 491#3900000000000004
(1753981442.963912) can0 493#000D306900003A02
(1753981442.964162) can0 4DD#0000000000000100
(1753981442.964411) can0 4DE#00F11900F0D43E00
(1753981442.964662) can0 4E2#22014F010000D19E
(1753981442.964914) can0 542#AA1A00000000FFFF
(1753981442.965161) can0 595#1900C7C80000520F
(1753981442.965411) can0 596#228A00003900171A
(1753981442.965660) can0 597#8573000000000000
(1753981442.965786) can0 598#00000000C368F112
(1753981442.966036) can0 599#0800000000000000
(1753981442.966287) can0 59C#0000000000000000
(1753981442.966536) can0 59E#00000000520F0000
(1753981442.966786) can0 5A3#4F0000008C7D8C7D
(1753981442.967037) can0 5D5#000000A4C8C80015
(1753981442.967286) can0 5D6#C7C80000171A91B3
(1753981442.967539) can0 5D7#0280000000000000
(1753981442.967786) can0 5D8#41AA15007300520F
(1753981442.968035) can0 7EC#25AA0000C8C80100
(1753981442.975051) can0 7EC#261200000000AAAA
(1753981443.056443) can0 7E4#0322010100000000
(1753981443.063444) can0 594#241E2823E6A50000
(1753981443.063669) can0 491#3900000000000004
(1753981443.063920) can0 493#000D306900003A02
(1753981443.064170) can0 4DD#0000000000000100
(1753981443.064418) can0 4DE#00F11900F0D43E00
(1753981443.064686) can0 4E2#22014F010000D19E
(1753981443.064919) can0 542#AA1A00000000FFFF
(1753981443.065167) can0 595#1900C7C80000520F
(1753981443.065439) can0 596#2D8A00003900171A
(1753981443.065676) can0 597#0573000000000000
(1753981443.065803) can0 598#00000000C368F112
(1753981443.066054) can0 599#0800000000000000
(1753981443.066302) can0 59C#0000000000000000
(1753981443.066553) can0 59E#00000000520F0000
(1753981443.066804) can0 5A3#4F0000008C7D8C7D
(1753981443.067054) can0 5D5#000000A4C8C80015
(1753981443.067304) can0 5D6#C7C80000171A225A
(1753981443.067551) can0 5D7#0280000000000000
(1753981443.067803) can0 5D8#41AA15007300520F
(1753981443.068052) can0 7EC#103E620101FFF7E7
(1753981443.068293) can0 7E4#3000000000000000
(1753981443.075093) can0 7EC#21FFA50000000007
(1753981443.085057) can0 7EC#2200000F521A1718
(1753981443.095064) can0 7EC#23171719000019C8
(1753981443.105065) can0 7EC#2442C73800008A00
(1753981443.115058) can0 7EC#25033514000323BB
(1753981443.125053) can0 7EC#2600012B2200011D
(1753981443.135061) can0 7EC#274000C76CA30119
(1753981443.145063) can0 7EC#28997FFF7FFF01E9
(1753981443.163435) can0 594#241E2823E6A50000
(1753981443.163667) can0 491#3900000000000004
(1753981443.163915) can0 493#000D306900003A02
(1753981443.164166) can0 4DD#0000000000000100
(1753981443.164415) can0 4DE#00F11900F0D43E00
(1753981443.164665) can0 4E2#22014F010000D19E
(1753981443.164916) can0 542#AA1A00000000FFFF
(1753981443.165165) can0 595#1900C7C80000520F
(1753981443.165290) can0 596#3B8A00003900171A
(1753981443.165666) can0 597#8573000000000000
(1753981443.165788) can0 598#00000000C368F112
(1753981443.166042) can0 599#0800000000000000
(1753981443.166290) can0 59C#0000000000000000
(1753981443.166541) can0 59E#00000000520F0000
(1753981443.166790) can0 5A3#4F0000008C7D8C7D
(1753981443.167040) can0 5D5#000000A4C8C80015
(1753981443.167291) can0 5D6#C7C80000171A225A
(1753981443.167540) can0 5D7#0280000000000000
(1753981443.167790) can0 5D8#41AA15007300520F
(1753981443.212708) can0 7E4#0322010600000000
(1753981443.220097) can0 7EC#101B620106FFFFFF
(1753981443.220300) can0 7E4#3000000000000000
(1753981443.230094) can0 7EC#21FF1900F0000000
(1753981443.240066) can0 7EC#2200000000010000
(1753981443.250111) can0 7EC#23B400081529EA00
(1753981443.263441) can0 594#241E2823E6A50000
(1753981443.263667) can0 491#3900000000000004
(1753981443.263917) can0 493#000D306900003A02
(1753981443.264169) can0 4DD#0000000000000100
(1753981443.264418) can0 4DE#00F11900F0D43E00
(1753981443.264667) can0 4E2#22014F010000D19E
(1753981443.264930) can0 542#AA1A00000000FFFF
(1753981443.265189) can0 595#1900C7C80000510F
(1753981443.265303) can0 596#838A00003900171A
(1753981443.265669) can0 597#0573000000000000
(1753981443.265793) can0 598#00000000C368F112
(1753981443.266043) can0 599#0800000000000000
(1753981443.266292) can0 59C#0000000000000000
(1753981443.266546) can0 59E#00000000510F0000
(1753981443.266792) can0 5A3#4F0000008C7D8C7D
(1753981443.267041) can0 5D5#000000A4C8C80015
(1753981443.267292) can0 5D6#C7C80000171A3BB3
(1753981443.267541) can0 5D7#0280000000000000
(1753981443.267792) can0 5D8#41AA15007300510F
(1753981443.292703) can0 7E4#0322010500000000
(1753981443.300097) can0 7EC#102E620105003FFF
(1753981443.300306) can0 7E4#3000000000000000
(1753981443.310107) can0 7EC#2190000000000000
(1753981443.320098) can0 7EC#220000198A99191E
(1753981443.330063) can0 7EC#23242328000164F1
(1753981443.340062) can0 7EC#24AA03E800001100
(1753981443.350075) can0 7EC#25AA0000C8C80100
(1753981443.360064) can0 7EC#261200000000AAAA
(1753981443.363434) can0 594#241E2823E6A50000
(1753981443.363669) can0 491#3900000000000004
(1753981443.363918) can0 493#000D306900003A02
(1753981443.364169) can0 4DD#0000000000000100
(1753981443.364419) can0 4DE#00F11900F0D43E00
(1753981443.364686) can0 4E2#22014F010000D19E
(1753981443.364920) can0 542#AA1A00000000FFFF
(1753981443.365172) can0 595#1900C7C80000510F
(1753981443.365293) can0 596#918A00003900171A
(1753981443.365544) can0 597#8573000000000000
(1753981443.365794) can0 598#00000000C368F112
(1753981443.366044) can0 599#0800000000000000
(1753981443.366294) can0 59C#0000000000000000
(1753981443.366542) can0 59E#00000000510F0000
(1753981443.366799) can0 5A3#4F0000008C7D8C7D
(1753981443.367049) can0 5D5#000000A4C8C80015
(1753981443.367298) can0 5D6#C7C80000171A3BB3
(1753981443.367549) can0 5D7#0280000000000000
(1753981443.367799) can0 5D8#41AA15007300510F
(1753981443.400808) can0 7E4#0322010100000000
(1753981443.410097) can0 7EC#103E620101FFF7E7
(1753981443.410472) can0 7E4#3000000000000000
(1753981443.420069) can0 7EC#21FFA50000000007
(1753981443.430059) can0 7EC#2200000F511A1718
(1753981443.440061) can0 7EC#23171719000019C8
(1753981443.450058) can0 7EC#2442C74B00008A00
(1753981443.460069) can0 7EC#25033514000323BB
(1753981443.463450) can0 594#241E2823E6A50000
(1753981443.463666) can0 491#3900000000000004
(1753981443.463925) can0 493#000D306900003A02
(1753981443.464169) can0 4DD#0000000000000100
(1753981443.464417) can0 4DE#00F11900F0D43E00
(1753981443.464667) can0 4E2#22014F010000D19E
(1753981443.464917) can0 542#AA1A00000000FFFF
(1753981443.465167) can0 595#1900C7C80000510F
(1753981443.465290) can0 596#218A00003900171A
(1753981443.465666) can0 597#0573000000000000
(1753981443.465790) can0 598#00000000C368F112
(1753981443.466043) can0 599#0800000000000000
(1753981443.466292) can0 59C#0000000000000000
(1753981443.466542) can0 59E#00000000510F0000
(1753981443.466792) can0 5A3#4F0000008C7D8C7D
(1753981443.467041) can0 5D5#000000A4C8C80015
(1753981443.467291) can0 5D6#C7C80000171A915A
(1753981443.467541) can0 5D7#0280000000000000
(1753981443.467790) can0 5D8#41AA15007300510F
(1753981443.470054) can0 7EC#2600012B2200011D
(1753981443.480074) can0 7EC#274000C76CA30119
(1753981443.490059) can0 7EC#28997FFF7FFF01E9
(1753981443.563435) can0 594#241E2823E6A50000
(1753981443.563667) can0 491#3900000000000004
(1753981443.563917) can0 493#000D306900003A02
(1753981443.564167) can0 497#220000B400000000
(1753981443.564417) can0 498#0000000000000000
(1753981443.564667) can0 4DD#0000000000000100
(1753981443.564916) can0 4DE#00F11900F0D43E00
(1753981443.565167) can0 4E2#22014F010000D19E
(1753981443.565416) can0 542#AA1A00000000FFFF
(1753981443.565667) can0 595#1900C7C80000520F
(1753981443.565916) can0 596#228A00003900171A
(1753981443.566166) can0 597#8573000000000000
(1753981443.566291) can0 598#00000000C368F112
(1753981443.566541) can0 599#0800000000000000
(1753981443.566791) can0 59C#0000000000000000
(1753981443.567043) can0 59E#00000000520F0000
(1753981443.567291) can0 5A3#4F0000008C7D8C7D
(1753981443.567541) can0 5D5#000000A4C8C80015
(1753981443.567791) can0 5D6#C7C80000171A915A
(1753981443.568041) can0 5D7#0280000000000000
(1753981443.568292) can0 5D8#41AA15007300520F
(1753981443.583938) can0 7E4#0322010600000000
(1753981443.590060) can0 7EC#101B620106FFFFFF
(1753981443.590418) can0 7E4#3000000000000000
(1753981443.600058) can0 7EC#21FF1900F0000000
(1753981443.610084) can0 7EC#2200000000010000
(1753981443.620062) can0 7EC#23B400081529EA00
(1753981443.660933) can0 7E4#0322010500000000
(1753981443.663435) can0 594#241E2823E6A50000
(1753981443.663667) can0 491#3900000000000004
(1753981443.663917) can0 493#000D306900003A02
(1753981443.664168) can0 4DD#0000000000000100
(1753981443.664417) can0 4DE#00F11900F0D43E00
(1753981443.664690) can0 4E2#22014F010000D19E
(1753981443.664919) can0 542#AA1A00000000FFFF
(1753981443.665168) can0 595#1900C7C80000510F
(1753981443.665418) can0 596#2D8A00003900171A
(1753981443.665667) can0 597#0573000000000000
(1753981443.665793) can0 598#00000000C368F112
(1753981443.666044) can0 599#0800000000000000
(1753981443.666292) can0 59C#0000000000000000
(1753981443.666544) can0 59E#00000000510F0000
(1753981443.666794) can0 5A3#4F0000008C7D8C7D
(1753981443.667044) can0 5D5#000000A4C8C80015
(1753981443.667293) can0 5D6#C7C80000171A22B3
(1753981443.667542) can0 5D7#0280000000000000
(1753981443.667794) can0 5D8#41AA15007300510F
(1753981443.670059) can0 7EC#102E620105003FFF
(1753981443.670417) can0 7E4#3000000000000000
(1753981443.680058) can0 7EC#2190000000000000
(1753981443.690062) can0 7EC#220000198A99191E
(1753981443.700059) can0 7EC#23242328000164F1
(1753981443.710059) can0 7EC#24AA03E800001100
(1753981443.720061) can0 7EC#25AA0000C8C80100
(1753981443.730072) can0 7EC#261200000000AAAA
(1753981443.763434) can0 594#241E2823E6A50000
(1753981443.763669) can0 491#3900000000000004
(1753981443.763918) can0 493#000D306900003A02
(1753981443.764169) can0 4DD#0000000000000100
(1753981443.764419) can0 4DE#00F11900F0D43E00
(1753981443.764687) can0 4E2#22014F010000D19E
(1753981443.764919) can0 542#AA1A00000000FFFF
(1753981443.765168) can0 595#1900C7C80000520F
(1753981443.765418) can0 596#3B8A00003900171A
(1753981443.765669) can0 597#8573000000000000
(1753981443.765792) can0 598#00000000C368F112
(1753981443.766044) can0 599#0800000000000000
(1753981443.766293) can0 59C#0000000000000000
(1753981443.766669) can0 59E#00000000520F0000
(1753981443.766793) can0 5A3#4F0000008C7D8C7D
(1753981443.767044) can0 5D5#000000A4C8C80015
(1753981443.767294) can0 5D6#C7C80000171A22B3
(1753981443.767543) can0 5D7#0280000000000000
(1753981443.767793) can0 5D8#41AA15007300520F
(1753981443.782686) can0 7E4#0322010100000000
(1753981443.790062) can0 7EC#103E620101FFF7E7
(1753981443.790420) can0 7E4#3000000000000000
(1753981443.800063) can0 7EC#21FFA50000000007
(1753981443.810074) can0 7EC#2200000F521A1718
(1753981443.820057) can0 7EC#23171719000019C8
(1753981443.830062) can0 7EC#2442C73800008A00
(1753981443.840066) can0 7EC#25033514000323BB
(1753981443.850061) can0 7EC#2600012B2200011D
(1753981443.860060) can0 7EC#274000C76CA40119
(1753981443.863436) can0 594#241E2823E6A50000
(1753981443.863671) can0 491#3900000000000004
(1753981443.863920) can0 493#000D306900003A02
(1753981443.864171) can0 4DD#0000000000000100
(1753981443.864421) can0 4DE#00F11900F0D43E00
(1753981443.864692) can0 4E2#22014F010000D19E
(1753981443.864921) can0 542#AA1A00000000FFFF
(1753981443.865170) can0 595#1900C7C80000520F
(1753981443.865420) can0 596#838A00003900171A
(1753981443.865671) can0 597#0573000000000000
(1753981443.865920) can0 598#00000000C368F112
(1753981443.866046) can0 599#0800000000000000
(1753981443.866420) can0 59C#0000000000000000
(1753981443.866670) can0 59E#00000000520F0000
(1753981443.866794) can0 5A3#4F0000008C7D8C7D
(1753981443.867044) can0 5D5#000000A4C8C80015
(1753981443.867295) can0 5D6#C7C80000171A3B5A
(1753981443.867545) can0 5D7#0280000000000000
(1753981443.867795) can0 5D8#41AA15007300520F
(1753981443.870060) can0 7EC#28997FFF7FFF01E9
(1753981443.922692) can0 7E4#0322010600000000
(1753981443.930065) can0 7EC#101B620106FFFFFF
(1753981443.930421) can0 7E4#3000000000000000
(1753981443.940064) can0 7EC#21FF1900F0000000
(1753981443.950063) can0 7EC#2200000000010000
(1753981443.960079) can0 7EC#23B400081529EA00
(1753981443.963430) can0 594#241E2823E6A50000
(1753981443.963685) can0 491#3900000000000004
(1753981443.963932) can0 493#000D306900003A02
(1753981443.964171) can0 4DD#0000000000000100
(1753981443.964422) can0 4DE#00F11900F0D43E00
(1753981443.964686) can0 4E2#22014F010000D19E
(1753981443.964923) can0 542#AA1A00000000FFFF
(1753981443.965172) can0 595#1900C7C80000520F
(1753981443.965422) can0 596#918A00003900171A
(1753981443.965672) can0 597#8573000000000000
(1753981443.965796) can0 598#00000000C368F112
(1753981443.966047) can0 599#0800000000000000
(1753981443.966298) can0 59C#0000000000000000
(1753981443.966675) can0 59E#00000000520F0000
(1753981443.966797) can0 5A3#4F0000008C7D8C7D
(1753981443.967048) can0 5D5#000000A4C8C80015
(1753981443.967298) can0 5D6#C7C80000171A3B5A
(1753981443.967547) can0 5D7#0280000000000000
(1753981443.967797) can0 5D8#41AA15007300520F
(1753981443.990188) can0 7E4#0322010500000000
(1753981444.000062) can0 7EC#102E620105003FFF
(1753981444.000422) can0 7E4#3000000000000000
(1753981444.010089) can0 7EC#2190000000000000
(1753981444.020066) can0 7EC#220000198A99191E
(1753981444.030063) can0 7EC#23242328000164F1
(1753981444.040067) can0 7EC#24AA03E800001100
(1753981444.050065) can0 7EC#25AA0000C8C80100
(1753981444.060067) can0 7EC#261200000000AAAA
(1753981444.063437) can0 594#241E2823E6A50000
(1753981444.063671) can0 491#3900000000000004
(1753981444.063923) can0 493#000D306900003A02
(1753981444.064172) can0 4DD#0000000000000100
(1753981444.064423) can0 4DE#00F11900F0D43E00
(1753981444.064695) can0 4E2#22014F010000D19E
(1753981444.064922) can0 542#AA1A00000000FFFF
(1753981444.065172) can0 595#1900C7C80000510F
(1753981444.065421) can0 596#218A00003900171A
(1753981444.065673) can0 597#0573000000000000
(1753981444.065796) can0 598#00000000C368F112
(1753981444.066173) can0 599#0800000000000000
(1753981444.066296) can0 59C#0000000000000000
(1753981444.066672) can0 59E#00000000510F0000
(1753981444.066797) can0 5A3#4F0000008C7D8C7D
(1753981444.067047) can0 5D5#000000A4C8C80015
(1753981444.067296) can0 5D6#C7C80000171A91B3
(1753981444.067548) can0 5D7#0280000000000000
(1753981444.067796) can0 5D8#41AA15007300510F
(1753981444.097701) can0 7E4#0322010100000000
(1753981444.105064) can0 7EC#103E620101FFF7E7
(1753981444.105425) can0 7E4#3000000000000000
(1753981444.115069) can0 7EC#21FFA50000000007
(1753981444.125063) can0 7EC#2200000F521A1718
(1753981444.135066) can0 7EC#23171719000019C8
(1753981444.145063) can0 7EC#2442C73800008A00
(1753981444.155069) can0 7EC#25033514000323BB
(1753981444.163438) can0 594#241E2823E6A50000
(1753981444.163673) can0 491#3900000000000004
(1753981444.163923) can0 493#000D306900003A02
(1753981444.164174) can0 4DD#0000000000000100
(1753981444.164424) can0 4DE#00F11900F0D43E00
(1753981444.164688) can0 4E2#22014F010000D19E
(1753981444.164922) can0 542#AA1A00000000FFFF
(1753981444.165174) can0 595#1900C7C80000520F
(1753981444.165423) can0 596#228A00003900171A
(1753981444.165674) can0 597#8573000000000000
(1753981444.165923) can0 598#00000000C368F112
(1753981444.166172) can0 599#0800000000000000
(1753981444.166424) can0 59C#0000000000000000
(1753981444.166672) can0 59E#00000000520F0000
(1753981444.166797) can0 5A3#4F0000008C7D8C7D
(1753981444.167049) can0 5D5#000000A4C8C80015
(1753981444.167297) can0 5D6#C7C80000171A91B3
(1753981444.167549) can0 5D7#0280000000000000
(1753981444.167798) can0 5D8#41AA15007300520F
(1753981444.168050) can0 7EC#2600012B2200011D
(1753981444.175066) can0 7EC#274000C76CA40119
(1753981444.185064) can0 7EC#28997FFF7FFF01E9
(1753981444.263451) can0 594#241E2823E6A50000
(1753981444.263676) can0 491#3900000000000004
(1753981444.263931) can0 493#000D306900003A02
(1753981444.264180) can0 4DD#0000000000000100
(1753981444.264429) can0 4DE#00F11900F0D43E00
(1753981444.264693) can0 4E2#22014F010000D19E
(1753981444.264928) can0 542#AA1A00000000FFFF
(1753981444.265179) can0 595#1900C7C80000510F
(1753981444.265424) can0 596#2D8A00003900171A
(1753981444.265674) can0 597#0573000000000000
(1753981444.265800) can0 598#00000000C368F112
(1753981444.266175) can0 599#0800000000000000
(1753981444.266299) can0 59C#0000000000000000
(1753981444.266677) can0 59E#00000000510F0000
(1753981444.266800) can0 5A3#4F0000008C7D8C7D
(1753981444.267050) can0 5D5#000000A4C8C80015
(1753981444.267299) can0 5D6#C7C80000171A225A
(1753981444.267550) can0 5D7#0280000000000000
(1753981444.267803) can0 5D8#41AA15007300510F
(1753981444.298941) can0 7E4#0322010600000000
(1753981444.305064) can0 7EC#101B620106FFFFFF
(1753981444.305424) can0 7E4#3000000000000000
(1753981444.315067) can0 7EC#21FF1900F0000000
(1753981444.325063) can0 7EC#2200000000010000
(1753981444.335072) can0 7EC#23B400081529EA00
(1753981444.363448) can0 594#241E2823E6A50000
(1753981444.363675) can0 491#3900000000000004
(1753981444.363925) can0 493#000D306900003A02
(1753981444.364178) can0 4DD#0000000000000100
(1753981444.364425) can0 4DE#00F11900F0D43E00
(1753981444.364697) can0 4E2#22014F010000D19E
(1753981444.364926) can0 542#AA1A00000000FFFF
(1753981444.365175) can0 595#1900C7C80000520F
(1753981444.365426) can0 596#3B8A00003900171A
(1753981444.365673) can0 597#8573000000000000
(1753981444.365798) can0 598#00000000C368F112
(1753981444.366049) can0 599#0800000000000000
(1753981444.366299) can0 59C#0000000000000000
(1753981444.366674) can0 59E#00000000520F0000
(1753981444.366798) can0 5A3#4F0000008C7D8C7D
(1753981444.367050) can0 5D5#000000A4C8C80015
(1753981444.367299) can0 5D6#C7C80000171A225A
(1753981444.367549) can0 5D7#0280000000000000
(1753981444.367799) can0 5D8#41AA15007300520F
(1753981444.419569) can0 7E4#0322010500000000
(1753981444.425066) can0 7EC#102E620105003FFF
(1753981444.425426) can0 7E4#3000000000000000
(1753981444.435070) can0 7EC#2190000000000000
(1753981444.445066) can0 7EC#220000198A99191E
(1753981444.455071) can0 7EC#23242328000164F1
(1753981444.463440) can0 594#241E2823E6A50000
(1753981444.463678) can0 491#3900000000000004
(1753981444.463927) can0 493#000D306900003A02
(1753981444.464177) can0 4DD#0000000000000100
(1753981444.464427) can0 4DE#00F11900F0D43E00
(1753981444.464691) can0 4E2#22014F010000D19E
(1753981444.464926) can0 542#AA1A00000000FFFF
(1753981444.465175) can0 595#1900C7C80000510F
(1753981444.465426) can0 596#838A00003900171A
(1753981444.465677) can0 597#0573000000000000
(1753981444.465800) can0 598#00000000C368F112
(1753981444.466052) can0 599#0800000000000000
(1753981444.466425) can0 59C#0000000000000000
(1753981444.466677) can0 59E#00000000510F0000
(1753981444.466800) can0 5A3#4F0000008C7D8C7D
(1753981444.467050) can0 5D5#000000A4C8C80015
(1753981444.467303) can0 5D6#C7C80000171A3BB3
(1753981444.467551) can0 5D7#0280000000000000
(1753981444.467802) can0 5D8#41AA15007300510F
(1753981444.468051) can0 7EC#24AA03E800001100
(1753981444.475068) can0 7EC#25AA0000C8C80100
(1753981444.485071) can0 7EC#261200000000AAAA
(1753981444.526443) can0 7E4#0322010100000000
(1753981444.535068) can0 7EC#103E620101FFF7E7
(1753981444.535428) can0 7E4#3000000000000000
(1753981444.545076) can0 7EC#21FFA50000000007
(1753981444.555073) can0 7EC#2200000F511A1718
(1753981444.563447) can0 594#241E2823E6A50000
(1753981444.563678) can0 491#3900000000000004
(1753981444.563928) can0 493#000D306900003A02
(1753981444.564176) can0 497#110000B400000000
(1753981444.564427) can0 498#0000000000000000
(1753981444.564690) can0 4DD#0000000000000100
(1753981444.564927) can0 4DE#00F11900F0D43E00
(1753981444.565178) can0 4E2#22014F010000D19E
(1753981444.565428) can0 542#AA1A00000000FFFF
(1753981444.565677) can0 595#1900C7C80000510F
(1753981444.565926) can0 596#918A00003900171A
(1753981444.566177) can0 597#8573000000000000
(1753981444.566429) can0 598#00000000C368F112
(1753981444.566679) can0 599#0800000000000000
(1753981444.566803) can0 59C#0000000000000000
(1753981444.567054) can0 59E#00000000510F0000
(1753981444.567303) can0 5A3#4F0000008C7D8C7D
(1753981444.567553) can0 5D5#000000A4C8C80015
(1753981444.567801) can0 5D6#C7C80000171A3BB3
(1753981444.568053) can0 5D7#0280000000000000
(1753981444.568301) can0 5D8#41AA15007300510F
(1753981444.568553) can0 7EC#23171719000019C8
(1753981444.575067) can0 7EC#2442C74B00008A00
(1753981444.585069) can0 7EC#25033514000323BB
(1753981444.595069) can0 7EC#2600012B2200011D
(1753981444.605068) can0 7EC#274000C76CA50119
(1753981444.615065) can0 7EC#28997FFF7FFF01E9
(1753981444.655200) can0 7E4#0322010600000000
(1753981444.663446) can0 594#241E2823E6A50000
(1753981444.663679) can0 491#3900000000000004
(1753981444.663929) can0 493#000D306900003A02
(1753981444.664180) can0 4DD#0000000000000100
(1753981444.664430) can0 4DE#00F11900F0D43E00
(1753981444.664690) can0 4E2#22014F010000D19E
(1753981444.664931) can0 542#AA1A00000000FFFF
(1753981444.665179) can0 595#1900C7C80000520F
(1753981444.665428) can0 596#218A00003900171A
(1753981444.665680) can0 597#0573000000000000
(1753981444.665928) can0 598#00000000C368F112
(1753981444.666179) can0 599#0800000000000000
(1753981444.666429) can0 59C#0000000000000000
(1753981444.666683) can0 59E#00000000520F0000
(1753981444.666803) can0 5A3#4F0000008C7D8C7D
(1753981444.667061) can0 5D5#000000A4C8C80015
(1753981444.667305) can0 5D6#C7C80000171A915A
(1753981444.667554) can0 5D7#0280000000000000
(1753981444.667802) can0 5D8#41AA15007300520F
(1753981444.668053) can0 7EC#101B620106FFFFFF
(1753981444.668304) can0 7E4#3000000000000000
(1753981444.675070) can0 7EC#21FF1900F0000000
(1753981444.685070) can0 7EC#2200000000010000
(1753981444.695100) can0 7EC#23B400081529EA00
(1753981444.729569) can0 7E4#0322010500000000
(1753981444.735074) can0 7EC#102E620105003FFF
(1753981444.735431) can0 7E4#3000000000000000
(1753981444.745074) can0 7EC#2190000000000000
(1753981444.755070) can0 7EC#220000198A99191E
(1753981444.763459) can0 594#241E2823E6A50000
(1753981444.763681) can0 491#3900000000000004
(1753981444.763936) can0 493#000D306900003A02
(1753981444.764181) can0 4DD#0000000000000100
(1753981444.764430) can0 4DE#00F11900F0D43E00
(1753981444.764726) can0 4E2#22014F010000D19E
(1753981444.764928) can0 542#AA1A00000000FFFF
(1753981444.765178) can0 595#1900C7C80000510F
(1753981444.765428) can0 596#228A00003900171A
(1753981444.765678) can0 597#8573000000000000
(1753981444.765802) can0 598#00000000C368F112
(1753981444.766178) can0 599#0800000000000000
(1753981444.766430) can0 59C#0000000000000000
(1753981444.766679) can0 59E#00000000510F0000
(1753981444.766803) can0 5A3#4F0000008C7D8C7D
(1753981444.767056) can0 5D5#000000A4C8C80015
(1753981444.767303) can0 5D6#C7C80000171A915A
(1753981444.767555) can0 5D7#0280000000000000
(1753981444.767806) can0 5D8#41AA15007300510F
(1753981444.768056) can0 7EC#23242328000164F1
(1753981444.775070) can0 7EC#24AA03E800001100
(1753981444.785068) can0 7EC#25AA0000C8C80100
(1753981444.795071) can0 7EC#261200000000AAAA
(1753981444.833941) can0 7E4#0322010100000000
(1753981444.840068) can0 7EC#103E620101FFF7E7
(1753981444.840431) can0 7E4#3000000000000000
(1753981444.850070) can0 7EC#21FFA50000000007
(1753981444.860075) can0 7EC#2200000F521A1718
(1753981444.863450) can0 594#241E2823E6A50000
(1753981444.863679) can0 491#3900000000000004
(1753981444.863931) can0 493#000D306900003A02
(1753981444.864181) can0 4DD#0000000000000100
(1753981444.864430) can0 4DE#00F11900F0D43E00
(1753981444.864708) can0 4E2#22014F010000D19E
(1753981444.864930) can0 542#AA1A00000000FFFF
(1753981444.865180) can0 595#1900C7C80000520F
(1753981444.865431) can0 596#2D8A00003900171A
(1753981444.865679) can0 597#0573000000000000
(1753981444.865931) can0 598#00000000C368F112
(1753981444.866179) can0 599#0800000000000000
(1753981444.866430) can0 59C#0000000000000000
(1753981444.866679) can0 59E#00000000520F0000
(1753981444.866803) can0 5A3#4F0000008C7D8C7D
(1753981444.867056) can0 5D5#000000A4C8C80015
(1753981444.867305) can0 5D6#C7C80000171A22B3
(1753981444.867555) can0 5D7#0280000000000000
(1753981444.867805) can0 5D8#41AA15007300520F
(1753981444.870070) can0 7EC#23171719000019C8
(1753981444.880070) can0 7EC#2418C73800008A00
(1753981444.890071) can0 7EC#25033514000323BB
(1753981444.900071) can0 7EC#2600012B2200011D
(1753981444.910070) can0 7EC#274000C76CA50119
(1753981444.920076) can0 7EC#28997FFF7FFF01E9
(1753981444.963452) can0 594#241E2823E6A50000
(1753981444.963681) can0 491#3900000000000004
(1753981444.963930) can0 493#000D306900003A02
(1753981444.964182) can0 4DD#0000000000000100
(1753981444.964432) can0 4DE#00F11900F0D43E00
(1753981444.964695) can0 4E2#22014F010000D19E
(1753981444.964933) can0 542#AA1A00000000FFFF
(1753981444.965182) can0 595#1900C7C80000520F
(1753981444.965433) can0 596#3B8A00003900171A
(1753981444.965680) can0 597#8573000000000000
(1753981444.965931) can0 598#00000000C368F112
(1753981444.966182) can0 599#0800000000000000
(1753981444.966431) can0 59C#0000000000000000
(1753981444.966680) can0 59E#00000000520F0000
(1753981444.966804) can0 5A3#4F0000008C7D8C7D
(1753981444.967055) can0 5D5#000000A4C8C80015
(1753981444.967305) can0 5D6#C7C80000171A22B3
(1753981444.967555) can0 5D7#0280000000000000
(1753981444.967804) can0 5D8#41AA15007300520F
(1753981444.972071) can0 7E4#0322010600000000
(1753981444.980089) can0 7EC#101B620106FFFFFF
(1753981444.980442) can0 7E4#3000000000000000
(1753981444.990074) can0 7EC#21FF1900F0000000
(1753981445.000074) can0 7EC#2200000000010000
(1753981445.010118) can0 7EC#23B400081529EA00
(1753981445.048200) can0 7E4#0322010500000000
(1753981445.055075) can0 7EC#102E620105003FFF
(1753981445.055434) can0 7E4#3000000000000000
(1753981445.063455) can0 594#241E2823E6A50000
(1753981445.063685) can0 491#3900000000000004
(1753981445.063936) can0 493#000D306900003A02
(1753981445.064183) can0 4DD#0000000000000100
(1753981445.064434) can0 4DE#00F11900F0D43E00
(1753981445.064695) can0 4E2#22014F010000D19E
(1753981445.064933) can0 542#AA1A00000000FFFF
(1753981445.065181) can0 595#1900C7C80000510F
(1753981445.065433) can0 596#838A00003900171A
(1753981445.065683) can0 597#0573000000000000
(1753981445.065932) can0 598#00000000C368F112
(1753981445.066184) can0 599#0800000000000000
(1753981445.066434) can0 59C#0000000000000000
(1753981445.066683) can0 59E#00000000510F0000
(1753981445.066805) can0 5A3#4F0000008C7D8C7D
(1753981445.067055) can0 5D5#000000A4C8C80015
(1753981445.067307) can0 5D6#C7C80000171A3B5A
(1753981445.067556) can0 5D7#0280000000000000
(1753981445.067808) can0 5D8#41AA15007300510F
(1753981445.068058) can0 7EC#2190000000000000
(1753981445.075074) can0 7EC#220000198A99191E
(1753981445.085072) can0 7EC#23242328000164F1
(1753981445.095103) can0 7EC#24AA03E800001100
(1753981445.105072) can0 7EC#25AA0000C8C80100
(1753981445.115078) can0 7EC#261200000000AAAA
(1753981445.152730) can0 7E4#0322010100000000
(1753981445.160090) can0 7EC#103E620101FFF7E7
(1753981445.160443) can0 7E4#3000000000000000
(1753981445.163573) can0 594#241E2823E6A50000
(1753981445.163683) can0 491#3900000000000004
(1753981445.163934) can0 493#000D306900003A02
(1753981445.164184) can0 4DD#0000000000000100
(1753981445.164434) can0 4DE#00F11900F0D43E00
(1753981445.164712) can0 4E2#22014F010000D19E
(1753981445.164934) can0 542#AA1A00000000FFFF
(1753981445.165184) can0 595#1900C7C80000520F
(1753981445.165436) can0 596#918A00003900171A
(1753981445.165688) can0 597#8573000000000000
(1753981445.165934) can0 598#00000000C368F112
(1753981445.166184) can0 599#0800000000000000
(1753981445.166433) can0 59C#0000000000000000
(1753981445.166683) can0 59E#00000000520F0000
(1753981445.166933) can0 5A3#4F0000008C7D8C7D
(1753981445.167055) can0 5D5#000000A4C8C80015
(1753981445.167306) can0 5D6#C7C80000171A3B5A
(1753981445.167557) can0 5D7#0280000000000000
(1753981445.167807) can0 5D8#41AA15007300520F
(1753981445.170074) can0 7EC#21FFA50000000007
(1753981445.180082) can0 7EC#2200000F521A1718
(1753981445.190074) can0 7EC#23171719000019C8
(1753981445.200077) can0 7EC#2442C73200008A00
(1753981445.210078) can0 7EC#25033514000323BB
(1753981445.220077) can0 7EC#2600012B2200011D
(1753981445.230084) can0 7EC#274000C76CA50119
(1753981445.240075) can0 7EC#28997FFF7FFF01E9
(1753981445.263472) can0 594#241E2823E6A50000
(1753981445.263695) can0 491#3900000000000004
(1753981445.263950) can0 493#000D306900003A02
(1753981445.264197) can0 4DD#0000000000000100
(1753981445.264445) can0 4DE#00F11900F0D43E00
(1753981445.264705) can0 4E2#22014F010000D19E
(1753981445.264939) can0 542#AA1A00000000FFFF
(1753981445.265187) can0 595#1900C7C80000520F
(1753981445.265440) can0 596#218A00003900171A
(1753981445.265691) can0 597#0573000000000000
(1753981445.265937) can0 598#00000000C368F112
(1753981445.266187) can0 599#0800000000000000
(1753981445.266441) can0 59C#0000000000000000
(1753981445.266685) can0 59E#00000000520F0000
(1753981445.266935) can0 5A3#4F0000008C7D8C7D
(1753981445.267059) can0 5D5#000000A4C8C80015
(1753981445.267309) can0 5D6#C7C80000171A91B3
(1753981445.267558) can0 5D7#0280000000000000
(1753981445.267807) can0 5D8#41AA15007300520F
(1753981445.305223) can0 7E4#0322010600000000
(1753981445.315091) can0 7EC#101B620106FFFFFF
(1753981445.315439) can0 7E4#3000000000000000
(1753981445.325070) can0 7EC#21FF1900F0000000
(1753981445.335080) can0 7EC#2200000000010000
(1753981445.345085) can0 7EC#23B400081529EA00
(1753981445.363482) can0 594#241E2823E6A50000
(1753981445.363698) can0 491#3900000000000004
(1753981445.363949) can0 493#000D306900003A02
(1753981445.364197) can0 4DD#0000000000000100
(1753981445.364448) can0 4DE#00F11900F0D43E00
(1753981445.364698) can0 4E2#22014F010000D19E
(1753981445.364942) can0 542#AA1A00000000FFFF
(1753981445.365192) can0 595#1900C7C80000520F
(1753981445.365438) can0 596#228A00003900171A
(1753981445.365688) can0 597#8573000000000000
(1753981445.365936) can0 598#00000000C368F112
(1753981445.366191) can0 599#0800000000000000
(1753981445.366438) can0 59C#0000000000000000
(1753981445.366685) can0 59E#00000000520F0000
(1753981445.366809) can0 5A3#4F0000008C7D8C7D
(1753981445.367063) can0 5D5#000000A4C8C80015
(1753981445.367311) can0 5D6#C7C80000171A91B3
(1753981445.367561) can0 5D7#0280000000000000
(1753981445.367811) can0 5D8#41AA15007300520F
(1753981445.384582) can0 7E4#0322010500000000
(1753981445.390079) can0 7EC#102E620105003FFF
(1753981445.390435) can0 7E4#3000000000000000
(1753981445.400075) can0 7EC#2190000000000000
(1753981445.410078) can0 7EC#220000198A99191E
(1753981445.420078) can0 7EC#23242328000164F1
(1753981445.430078) can0 7EC#24AA03E800001100
(1753981445.440076) can0 7EC#25AA0000C8C80100
(1753981445.450074) can0 7EC#261200000000AAAA
(1753981445.463463) can0 594#241E2823E6A50000
(1753981445.463689) can0 491#3900000000000004
(1753981445.463955) can0 493#000D306900003A02
(1753981445.464199) can0 4DD#0000000000000100
(1753981445.464438) can0 4DE#00F11900F0D43E00
(1753981445.464690) can0 4E2#22014F010000D19E
(1753981445.464935) can0 542#AA1A00000000FFFF
(1753981445.465187) can0 595#1900C7C80000520F
(1753981445.465472) can0 596#2D8A00003900171A
(1753981445.465699) can0 597#0573000000000000
(1753981445.465949) can0 598#00000000C368F112
(1753981445.466198) can0 599#0800000000000000
(1753981445.466452) can0 59C#0000000000000000
(1753981445.466700) can0 59E#00000000520F0000
(1753981445.466824) can0 5A3#4F0000008C7D8C7D
(1753981445.467076) can0 5D5#000000A4C8C80015
(1753981445.467324) can0 5D6#C7C80000171A225A
(1753981445.467561) can0 5D7#0280000000000000
(1753981445.467812) can0 5D8#41AA15007300520F
(1753981445.493970) can0 7E4#0322010100000000
(1753981445.500079) can0 7EC#103E620101FFF7E7
(1753981445.500439) can0 7E4#3000000000000000
(1753981445.510081) can0 7EC#21FFA50000000007
(1753981445.520094) can0 7EC#2200000F521A1718
(1753981445.530075) can0 7EC#23171719000019C8
(1753981445.540105) can0 7EC#2442C74B00008A00
(1753981445.550079) can0 7EC#25033514000323BB
(1753981445.560081) can0 7EC#2600012B2200011D
(1753981445.563590) can0 594#241E2823E6A50000
(1753981445.563690) can0 491#3900000000000004
(1753981445.563949) can0 493#000D306900003A02
(1753981445.564196) can0 497#140000B400000000
(1753981445.564445) can0 498#0000000000000000
(1753981445.564694) can0 4DD#0000000000000100
(1753981445.564943) can0 4DE#00F11900F0D43E00
(1753981445.565196) can0 4E2#22014F010000D19E
(1753981445.565446) can0 542#AA1A00000000FFFF
(1753981445.565694) can0 595#1900C7C80000520F
(1753981445.565944) can0 596#3B8A00003900171A
(1753981445.566194) can0 597#8573000000000000
(1753981445.566441) can0 598#00000000C368F112
(1753981445.566690) can0 599#0800000000000000
(1753981445.566940) can0 59C#0000000000000000
(1753981445.567192) can0 59E#00000000520F0000
(1753981445.567438) can0 5A3#4F0000008C7D8C7D
(1753981445.567690) can0 5D5#000000A4C8C80015
(1753981445.567812) can0 5D6#C7C80000171A225A
(1753981445.568065) can0 5D7#0280000000000000
(1753981445.568315) can0 5D8#41AA15007300520F
(1753981445.570068) can0 7EC#274000C76CA60119
(1753981445.580115) can0 7EC#28997FFF7FFF01E9
(1753981445.638952) can0 7E4#0322010600000000
(1753981445.645081) can0 7EC#101B620106FFFFFF
(1753981445.645440) can0 7E4#3000000000000000
(1753981445.655086) can0 7EC#21FF1900F0000000
