(1753981493.855124) can0 7E4#0322010100000000
(1753981493.861305) can0 7EC#103E620101FFF7E7
(1753981493.861546) can0 7E4#3000000000000000
(1753981493.864690) can0 594#241E2823E6A50000
(1753981493.864929) can0 491#3900000000000004
(1753981493.865169) can0 493#000D306900003A02
(1753981493.865419) can0 4DD#0000000000000100
(1753981493.865671) can0 4DE#00F11900F0D43E00
(1753981493.865906) can0 4E2#22014F010000D19E
(1753981493.866167) can0 542#AA1A00000000FFFF
(1753981493.866420) can0 595#1900C7C80000520F
(1753981493.866542) can0 596#218A00003900171A
(1753981493.866794) can0 597#0573000000000000
(1753981493.867053) can0 598#00000000C368F112
(1753981493.867294) can0 599#0800000000000000
(1753981493.867547) can0 59C#0000000000000000
(1753981493.867795) can0 59E#00000000520F0000
(1753981493.868045) can0 5A3#4F0000008C7D8C7D
(1753981493.868293) can0 5D5#000000A4C8C80015
(1753981493.868544) can0 5D6#C7C80000171A915A
(1753981493.868795) can0 5D7#0280000000000000
(1753981493.869044) can0 5D8#41AA15007300520F
(1753981493.871326) can0 7EC#21FFA50000000007
(1753981493.881300) can0 7EC#2200000F521A1718
(1753981493.891318) can0 7EC#23171719000019C8
(1753981493.901298) can0 7EC#2442C73200008A00
(1753981493.911351) can0 7EC#25033514000323BB
(1753981493.921350) can0 7EC#2600012B2200011D
(1753981493.931297) can0 7EC#274000C76CD60119
(1753981493.941305) can0 7EC#28997FFF7FFF01E9
(1753981493.964688) can0 594#241E2823E6A50000
(1753981493.964911) can0 491#3900000000000004
(1753981493.965162) can0 493#000D306900003A02
(1753981493.965412) can0 4DD#0000000000000100
(1753981493.965660) can0 4DE#00F11900F0D43E00
(1753981493.965910) can0 4E2#22014F010000D19E
(1753981493.966160) can0 542#AA1A00000000FFFF
(1753981493.966420) can0 595#1900C7C80000520F
(1753981493.966537) can0 596#228A00003900171A
(1753981493.966791) can0 597#8573000000000000
(1753981493.967039) can0 598#00000000C368F112
(1753981493.967287) can0 599#0800000000000000
(1753981493.967536) can0 59C#0000000000000000
(1753981493.967806) can0 59E#00000000520F0000
(1753981493.968056) can0 5A3#4F0000008C7D8C7D
(1753981493.968307) can0 5D5#000000A4C8C80015
(1753981493.968556) can0 5D6#C7C80000171A915A
(1753981493.968817) can0 5D7#0280000000000000
(1753981493.969054) can0 5D8#41AA15007300520F
(1753981494.023295) can0 7E4#0322010500000000
(1753981494.031300) can0 7EC#102E620105003FFF
(1753981494.031533) can0 7E4#3000000000000000
(1753981494.041325) can0 7EC#2190000000000000
(1753981494.051329) can0 7EC#220000198A99191E
(1753981494.061298) can0 7EC#23242328000164F1
(1753981494.064678) can0 594#241E2823E6A50000
(1753981494.064904) can0 491#3900000000000004
(1753981494.065153) can0 493#000D306900003A02
(1753981494.065439) can0 4DD#0000000000000100
(1753981494.065687) can0 4DE#00F11900F0D43E00
(1753981494.065944) can0 4E2#22014F010000D19E
(1753981494.066188) can0 542#AA1A00000000FFFF
(1753981494.066408) can0 595#1900C7C80000520F
(1753981494.066545) can0 596#2D8A00003900171A
(1753981494.066793) can0 597#0573000000000000
(1753981494.067046) can0 598#00000000C368F112
(1753981494.067294) can0 599#0800000000000000
(1753981494.067543) can0 59C#0000000000000000
(1753981494.067796) can0 59E#00000000520F0000
(1753981494.068045) can0 5A3#4F0000008C7D8C7D
(1753981494.068296) can0 5D5#000000A4C8C80015
(1753981494.068552) can0 5D6#C7C80000171A22B3
(1753981494.068817) can0 5D7#0280000000000000
(1753981494.069045) can0 5D8#41AA15007300520F
(1753981494.071319) can0 7EC#24AA03E800001100
(1753981494.081312) can0 7EC#25AA0000C8C80100
(1753981494.091324) can0 7EC#261200000000AAAA
(1753981494.147706) can0 7E4#0322011100000000
(1753981494.156310) can0 7EC#1019620111F80000
(1753981494.156547) can0 7E4#3000000000000000
(1753981494.164694) can0 594#241E2823E6A50000
(1753981494.164940) can0 491#3900000000000004
(1753981494.165191) can0 493#000D306900003A02
(1753981494.165440) can0 4DD#0000000000000100
(1753981494.165688) can0 4DE#00F11900F0D43E00
(1753981494.165940) can0 4E2#22014F010000D19E
(1753981494.166191) can0 542#AA1A00000000FFFF
(1753981494.166419) can0 595#1900C7C80000520F
(1753981494.166545) can0 596#3B8A00003900171A
(1753981494.166794) can0 597#8573000000000000
(1753981494.167047) can0 598#00000000C368F112
(1753981494.167314) can0 599#0800000000000000
(1753981494.167544) can0 59C#0000000000000000
(1753981494.167797) can0 59E#00000000520F0000
(1753981494.168046) can0 5A3#4F0000008C7D8C7D
(1753981494.168295) can0 5D5#000000A4C8C80015
(1753981494.168546) can0 5D6#C7C80000171A22B3
(1753981494.168797) can0 5D7#0280000000000000
(1753981494.169048) can0 5D8#41AA15007300520F
(1753981494.169298) can0 7EC#21000000007B0000
(1753981494.176309) can0 7EC#22003400000BB100
(1753981494.186317) can0 7EC#230006D03461AAAA
(1753981494.224716) can0 7E4#0322010100000000
(1753981494.231299) can0 7EC#103E620101FFF7E7
(1753981494.231535) can0 7E4#3000000000000000
(1753981494.241319) can0 7EC#21FFA50000000007
(1753981494.251308) can0 7EC#2200000F511A1718
(1753981494.261301) can0 7EC#23171719000019C8
(1753981494.264709) can0 594#241E2823E6A50000
(1753981494.264909) can0 491#3900000000000004
(1753981494.265160) can0 493#000D306900003A02
(1753981494.265412) can0 4DD#0000000000000100
(1753981494.265660) can0 4DE#00F11900F0D43E00
(1753981494.265909) can0 4E2#22014F010000D19E
(1753981494.266159) can0 542#AA1A00000000FFFF
(1753981494.266407) can0 595#1900C7C80000510F
(1753981494.266533) can0 596#838A00003900171A
(1753981494.266784) can0 597#0573000000000000
(1753981494.267032) can0 598#00000000C368F112
(1753981494.267283) can0 599#0800000000000000
(1753981494.267533) can0 59C#0000000000000000
(1753981494.267783) can0 59E#00000000510F0000
(1753981494.268033) can0 5A3#4F0000008C7D8C7D
(1753981494.268284) can0 5D5#000000A4C8C80015
(1753981494.268548) can0 5D6#C7C80000171A3B5A
(1753981494.268801) can0 5D7#0280000000000000
(1753981494.269046) can0 5D8#41AA15007300510F
(1753981494.271290) can0 7EC#2442C73800008A00
(1753981494.281295) can0 7EC#25033514000323BB
(1753981494.291333) can0 7EC#2600012B2200011D
(1753981494.301312) can0 7EC#274000C76CD60119
(1753981494.311332) can0 7EC#28997FFF7FFF01E9
(1753981494.362673) can0 7E4#0322010500000000
(1753981494.364663) can0 594#241E2823E6A50000
(1753981494.364909) can0 491#3900000000000004
(1753981494.365161) can0 493#000D306900003A02
(1753981494.365408) can0 4DD#0000000000000100
(1753981494.365660) can0 4DE#00F11900F0D43E00
(1753981494.365908) can0 4E2#22014F010000D19E
(1753981494.366159) can0 542#AA1A00000000FFFF
(1753981494.366409) can0 595#1900C7C80000510F
(1753981494.366533) can0 596#918A00003900171A
(1753981494.366784) can0 597#8573000000000000
(1753981494.367035) can0 598#00000000C368F112
(1753981494.367284) can0 599#0800000000000000
(1753981494.367533) can0 59C#0000000000000000
(1753981494.367783) can0 59E#00000000510F0000
(1753981494.368035) can0 5A3#4F0000008C7D8C7D
(1753981494.368283) can0 5D5#000000A4C8C80015
(1753981494.368534) can0 5D6#C7C80000171A3B5A
(1753981494.368784) can0 5D7#0280000000000000
(1753981494.369076) can0 5D8#41AA15007300510F
(1753981494.371327) can0 7EC#102E620105003FFF
(1753981494.371569) can0 7E4#3000000000000000
(1753981494.381306) can0 7EC#2190000000000000
(1753981494.391307) can0 7EC#220000198A99191E
(1753981494.401340) can0 7EC#23242328000164F1
(1753981494.411308) can0 7EC#24AA03E800001100
(1753981494.421309) can0 7EC#25AA0000C8C80100
(1753981494.431341) can0 7EC#261200000000AAAA
(1753981494.464698) can0 594#241E2823E6A50000
(1753981494.464914) can0 491#3900000000000004
(1753981494.465162) can0 493#000D306900003A02
(1753981494.465414) can0 4DD#0000000000000100
(1753981494.465662) can0 4DE#00F11900F0D43E00
(1753981494.465913) can0 4E2#22014F010000D19E
(1753981494.466163) can0 542#AA1A00000000FFFF
(1753981494.466412) can0 595#1900C7C80000520F
(1753981494.466662) can0 596#218A00003900171A
(1753981494.466913) can0 597#0573000000000000
(1753981494.467036) can0 598#00000000C368F112
(1753981494.467287) can0 599#0800000000000000
(1753981494.467537) can0 59C#0000000000000000
(1753981494.467788) can0 59E#00000000520F0000
(1753981494.468038) can0 5A3#4F0000008C7D8C7D
(1753981494.468288) can0 5D5#000000A4C8C80015
(1753981494.468537) can0 5D6#C7C80000171A91B3
(1753981494.468786) can0 5D7#0280000000000000
(1753981494.469034) can0 5D8#41AA15007300520F
(1753981494.513966) can0 7E4#0322011100000000
(1753981494.521348) can0 7EC#1019620111F80000
(1753981494.521584) can0 7E4#3000000000000000
(1753981494.531306) can0 7EC#21000000007B0000
(1753981494.541320) can0 7EC#22003400000BB100
(1753981494.551323) can0 7EC#230006D03461AAAA
(1753981494.564699) can0 594#241E2823E6A50000
(1753981494.564923) can0 491#3900000000000004
(1753981494.565174) can0 493#000D306900003A02
(1753981494.565424) can0 497#220000B400000000
(1753981494.565674) can0 498#0000000000000000
(1753981494.565925) can0 4DD#0000000000000100
(1753981494.566173) can0 4DE#00F11900F0D43E00
(1753981494.566423) can0 4E2#22014F010000D19E
(1753981494.566684) can0 542#AA1A00000000FFFF
(1753981494.566935) can0 595#1900C7C80000510F
(1753981494.567185) can0 596#228A00003900171A
(1753981494.567307) can0 597#8573000000000000
(1753981494.567558) can0 598#00000000C368F112
(1753981494.567809) can0 599#0800000000000000
(1753981494.568047) can0 59C#0000000000000000
(1753981494.568297) can0 59E#00000000510F0000
(1753981494.568559) can0 5A3#4F0000008C7D8C7D
(1753981494.568809) can0 5D5#000000A4C8C80015
(1753981494.569061) can0 5D6#C7C80000171A91B3
(1753981494.569308) can0 5D7#0280000000000000
(1753981494.569560) can0 5D8#41AA15007300510F
(1753981494.623957) can0 7E4#0322010100000000
(1753981494.631305) can0 7EC#103E620101FFF7E7
(1753981494.631540) can0 7E4#3000000000000000
(1753981494.641311) can0 7EC#21FFA50000000007
(1753981494.651344) can0 7EC#2200000F511A1718
(1753981494.661314) can0 7EC#23171719000019C8
(1753981494.664736) can0 594#241E2823E6A50000
(1753981494.664994) can0 491#3900000000000004
(1753981494.665188) can0 493#000D306900003A02
(1753981494.665438) can0 4DD#0000000000000100
(1753981494.665687) can0 4DE#00F11900F0D43E00
(1753981494.665939) can0 4E2#22014F010000D19E
(1753981494.666190) can0 542#AA1A00000000FFFF
(1753981494.666437) can0 595#1900C7C80000510F
(1753981494.666564) can0 596#2D8A00003900171A
(1753981494.666812) can0 597#0573000000000000
(1753981494.667189) can0 598#00000000C368F112
(1753981494.667315) can0 599#0800000000000000
(1753981494.667563) can0 59C#0000000000000000
(1753981494.667793) can0 59E#00000000510F0000
(1753981494.668044) can0 5A3#4F0000008C7D8C7D
(1753981494.668312) can0 5D5#000000A4C8C80015
(1753981494.668562) can0 5D6#C7C80000171A225A
(1753981494.668845) can0 5D7#0280000000000000
(1753981494.669094) can0 5D8#41AA15007300510F
(1753981494.671303) can0 7EC#2442C73800008A00
(1753981494.681326) can0 7EC#25033514000323BB
(1753981494.691309) can0 7EC#2600012B2200011D
(1753981494.701304) can0 7EC#274000C76CD70119
(1753981494.711354) can0 7EC#28997FFF7FFF01E9
(1753981494.754604) can0 7E4#0322010500000000
(1753981494.761320) can0 7EC#102E620105003FFF
(1753981494.761562) can0 7E4#3000000000000000
(1753981494.764690) can0 594#241E2823E6A50000
(1753981494.764957) can0 491#3900000000000004
(1753981494.765209) can0 493#000D306900003A02
(1753981494.765458) can0 4DD#0000000000000100
(1753981494.765708) can0 4DE#00F11900F0D43E00
(1753981494.765957) can0 4E2#22014F010000D19E
(1753981494.766221) can0 542#AA1A00000000FFFF
(1753981494.766418) can0 595#1900C7C80000510F
(1753981494.766561) can0 596#3B8A00003900171A
(1753981494.766812) can0 597#8573000000000000
(1753981494.767064) can0 598#00000000C368F112
(1753981494.767313) can0 599#0800000000000000
(1753981494.767562) can0 59C#0000000000000000
(1753981494.767812) can0 59E#00000000510F0000
(1753981494.768065) can0 5A3#4F0000008C7D8C7D
(1753981494.768314) can0 5D5#000000A4C8C80015
(1753981494.768562) can0 5D6#C7C80000171A225A
(1753981494.768812) can0 5D7#0280000000000000
(1753981494.769065) can0 5D8#41AA15007300510F
(1753981494.771346) can0 7EC#2190000000000000
(1753981494.781355) can0 7EC#220000198A99191E
(1753981494.791350) can0 7EC#23242328000164F1
(1753981494.801312) can0 7EC#24AA03E800001100
(1753981494.811356) can0 7EC#25AA0000C8C80100
(1753981494.821310) can0 7EC#261200000000AAAA
(1753981494.864689) can0 594#241E2823E6A50000
(1753981494.864916) can0 491#3900000000000004
(1753981494.865166) can0 493#000D306900003A02
(1753981494.865416) can0 4DD#0000000000000100
(1753981494.865667) can0 4DE#00F11900F0D43E00
(1753981494.865915) can0 4E2#22014F010000D19E
(1753981494.866166) can0 542#AA1A00000000FFFF
(1753981494.866414) can0 595#1900C7C80000510F
(1753981494.866540) can0 596#838A00003900171A
(1753981494.866798) can0 597#0573000000000000
(1753981494.867039) can0 598#00000000C368F112
(1753981494.867291) can0 599#0800000000000000
(1753981494.867541) can0 59C#0000000000000000
(1753981494.867798) can0 59E#00000000510F0000
(1753981494.868050) can0 5A3#4F0000008C7D8C7D
(1753981494.868298) can0 5D5#000000A4C8C80015
(1753981494.868546) can0 5D6#C7C80000171A3BB3
(1753981494.868793) can0 5D7#0280000000000000
(1753981494.869045) can0 5D8#41AA15007300510F
(1753981494.915818) can0 7E4#0322011100000000
(1753981494.921310) can0 7EC#1019620111F80000
(1753981494.921673) can0 7E4#3000000000000000
(1753981494.931360) can0 7EC#21000000007B0000
(1753981494.941361) can0 7EC#22003400000BB100
(1753981494.951360) can0 7EC#230006D03461AAAA
(1753981494.964700) can0 594#241E2823E6A50000
(1753981494.964974) can0 491#3900000000000004
(1753981494.965220) can0 493#000D306900003A02
(1753981494.965469) can0 4DD#0000000000000100
(1753981494.965671) can0 4DE#00F11900F0D43E00
(1753981494.965922) can0 4E2#22014F010000D19E
(1753981494.966172) can0 542#AA1A00000000FFFF
(1753981494.966473) can0 595#1900C7C80000510F
(1753981494.966691) can0 596#918A00003900171A
(1753981494.966796) can0 597#8573000000000000
(1753981494.967068) can0 598#00000000C368F112
(1753981494.967318) can0 599#0800000000000000
(1753981494.967567) can0 59C#0000000000000000
(1753981494.967813) can0 59E#00000000510F0000
(1753981494.968067) can0 5A3#4F0000008C7D8C7D
(1753981494.968313) can0 5D5#000000A4C8C80015
(1753981494.968567) can0 5D6#C7C80000171A3BB3
(1753981494.968818) can0 5D7#0280000000000000
(1753981494.969069) can0 5D8#41AA15007300510F
(1753981495.001441) can0 7E4#0322010100000000
(1753981495.011357) can0 7EC#103E620101FFF7E7
(1753981495.011550) can0 7E4#3000000000000000
(1753981495.021311) can0 7EC#21FFA50000000007
(1753981495.031362) can0 7EC#2200000F521A1718
(1753981495.041361) can0 7EC#23171719000019C8
(1753981495.051361) can0 7EC#2442C73800008A00
(1753981495.061331) can0 7EC#25033514000323BB
(1753981495.064730) can0 594#241E2823E6A50000
(1753981495.064972) can0 491#3900000000000004
(1753981495.065222) can0 493#000D306900003A02
(1753981495.065440) can0 4DD#0000000000000100
(1753981495.065691) can0 4DE#00F11900F0D43E00
(1753981495.065939) can0 4E2#22014F010000D19E
(1753981495.066192) can0 542#AA1A00000000FFFF
(1753981495.066440) can0 595#1900C7C80000520F
(1753981495.066564) can0 596#218A00003900171A
(1753981495.066816) can0 597#0573000000000000
(1753981495.067068) can0 598#00000000C368F112
(1753981495.067317) can0 599#0800000000000000
(1753981495.067567) can0 59C#0000000000000000
(1753981495.067815) can0 59E#00000000520F0000
(1753981495.068065) can0 5A3#4F0000008C7D8C7D
(1753981495.068315) can0 5D5#000000A4C8C80015
(1753981495.068545) can0 5D6#C7C80000171A915A
(1753981495.068817) can0 5D7#0280000000000000
(1753981495.069066) can0 5D8#41AA15007300520F
(1753981495.071300) can0 7EC#2600012B2200011D
(1753981495.081313) can0 7EC#274000C76CD70119
(1753981495.091329) can0 7EC#28997FFF7FFF01E9
(1753981495.131439) can0 7E4#0322010500000000
(1753981495.141359) can0 7EC#102E620105003FFF
(1753981495.141720) can0 7E4#3000000000000000
(1753981495.151364) can0 7EC#2190000000000000
(1753981495.161363) can0 7EC#220000198A99191E
(1753981495.164721) can0 594#241E2823E6A50000
(1753981495.164944) can0 491#3900000000000004
(1753981495.165194) can0 493#000D306900003A02
(1753981495.165441) can0 4DD#0000000000000100
(1753981495.165693) can0 4DE#00F11900F0D43E00
(1753981495.165941) can0 4E2#22014F010000D19E
(1753981495.166189) can0 542#AA1A00000000FFFF
(1753981495.166423) can0 595#1900C7C80000520F
(1753981495.166692) can0 596#228A00003900171A
(1753981495.166944) can0 597#8573000000000000
(1753981495.167193) can0 598#00000000C368F112
(1753981495.167321) can0 599#0800000000000000
(1753981495.167567) can0 59C#0000000000000000
(1753981495.167817) can0 59E#00000000520F0000
(1753981495.168065) can0 5A3#4F0000008C7D8C7D
(1753981495.168318) can0 5D5#000000A4C8C80015
(1753981495.168566) can0 5D6#C7C80000171A915A
(1753981495.168820) can0 5D7#0280000000000000
(1753981495.169069) can0 5D8#41AA15007300520F
(1753981495.171302) can0 7EC#23242328000164F1
(1753981495.181361) can0 7EC#24AA03E800001100
(1753981495.191323) can0 7EC#25AA0000C8C80100
(1753981495.201312) can0 7EC#261200000000AAAA
(1753981495.239572) can0 7E4#0322011100000000
(1753981495.246313) can0 7EC#1019620111F80000
(1753981495.246545) can0 7E4#3000000000000000
(1753981495.256316) can0 7EC#21000000007B0000
(1753981495.264715) can0 594#241E2823E6A50000
(1753981495.264973) can0 491#3900000000000004
(1753981495.265221) can0 493#000D306900003A02
(1753981495.265473) can0 4DD#0000000000000100
(1753981495.265723) can0 4DE#00F11900F0D43E00
(1753981495.265972) can0 4E2#22014F010000D19E
(1753981495.266194) can0 542#AA1A00000000FFFF
(1753981495.266443) can0 595#1900C7C80000510F
(1753981495.266692) can0 596#2D8A00003900171A
(1753981495.266946) can0 597#0573000000000000
(1753981495.267194) can0 598#00000000C368F112
(1753981495.267319) can0 599#0800000000000000
(1753981495.267570) can0 59C#0000000000000000
(1753981495.267817) can0 59E#00000000510F0000
(1753981495.268067) can0 5A3#4F0000008C7D8C7D
(1753981495.268317) can0 5D5#000000A4C8C80015
(1753981495.268566) can0 5D6#C7C80000171A22B3
(1753981495.268820) can0 5D7#0280000000000000
(1753981495.269068) can0 5D8#41AA15007300510F
(1753981495.269316) can0 7EC#22003400000BB100
(1753981495.276357) can0 7EC#230006D03461AAAA
(1753981495.305844) can0 7E4#0322010100000000
(1753981495.311315) can0 7EC#103E620101FFF7E7
(1753981495.311697) can0 7E4#3000000000000000
(1753981495.321361) can0 7EC#21FFA50000000007
(1753981495.331334) can0 7EC#2200000F511A1718
(1753981495.341332) can0 7EC#23171719000019C8
(1753981495.351311) can0 7EC#2442C74B00008A00
(1753981495.361317) can0 7EC#25033514000323BB
(1753981495.364694) can0 594#241E2823E6A50000
(1753981495.364921) can0 491#3900000000000004
(1753981495.365171) can0 493#000D306900003A02
(1753981495.365421) can0 4DD#0000000000000100
(1753981495.365671) can0 4DE#00F11900F0D43E00
(1753981495.365922) can0 4E2#22014F010000D19E
(1753981495.366170) can0 542#AA1A00000000FFFF
(1753981495.366421) can0 595#1900C7C80000510F
(1753981495.366670) can0 596#3B8A00003900171A
(1753981495.366921) can0 597#8573000000000000
(1753981495.367179) can0 598#00000000C368F112
(1753981495.367297) can0 599#0800000000000000
(1753981495.367551) can0 59C#0000000000000000
(1753981495.367797) can0 59E#00000000510F0000
(1753981495.368047) can0 5A3#4F0000008C7D8C7D
(1753981495.368296) can0 5D5#000000A4C8C80015
(1753981495.368545) can0 5D6#C7C80000171A22B3
(1753981495.368794) can0 5D7#0280000000000000
(1753981495.369043) can0 5D8#41AA15007300510F
(1753981495.371304) can0 7EC#2600012B2200011D
(1753981495.381347) can0 7EC#274000C76CD70119
(1753981495.391353) can0 7EC#28997FFF7FFF01E9
(1753981495.458330) can0 7E4#0322010500000000
(1753981495.464695) can0 594#241E2823E6A50000
(1753981495.464924) can0 491#3900000000000004
(1753981495.465173) can0 493#000D306900003A02
(1753981495.465431) can0 4DD#0000000000000100
(1753981495.465675) can0 4DE#00F11900F0D43E00
(1753981495.465924) can0 4E2#22014F010000D19E
(1753981495.466173) can0 542#AA1A00000000FFFF
(1753981495.466422) can0 595#1900C7C80000520F
(1753981495.466672) can0 596#838A00003900171A
(1753981495.466923) can0 597#0573000000000000
(1753981495.467172) can0 598#00000000C368F112
(1753981495.467297) can0 599#0800000000000000
(1753981495.467547) can0 59C#0000000000000000
(1753981495.467797) can0 59E#00000000520F0000
(1753981495.468047) can0 5A3#4F0000008C7D8C7D
(1753981495.468297) can0 5D5#000000A4C8C80015
(1753981495.468548) can0 5D6#C7C80000171A3B5A
(1753981495.468799) can0 5D7#0280000000000000
(1753981495.469048) can0 5D8#41AA15007300520F
(1753981495.469299) can0 7EC#102E620105003FFF
(1753981495.469549) can0 7E4#3000000000000000
(1753981495.476319) can0 7EC#2190000000000000
(1753981495.486354) can0 7EC#220000198A99191E
(1753981495.496318) can0 7EC#23242328000164F1
(1753981495.506352) can0 7EC#24AA03E800001100
(1753981495.516331) can0 7EC#25AA0000C8C80100
(1753981495.526333) can0 7EC#261200000000AAAA
(1753981495.564747) can0 594#241E2823E6A50000
(1753981495.564982) can0 491#3900000000000004
(1753981495.565197) can0 493#000D306900003A02
(1753981495.565443) can0 497#110000B400000000
(1753981495.565697) can0 498#0000000000000000
(1753981495.565946) can0 4DD#0000000000000100
(1753981495.566196) can0 4DE#00F11900F0D43E00
(1753981495.566446) can0 4E2#22014F010000D19E
(1753981495.566695) can0 542#AA1A00000000FFFF
(1753981495.566945) can0 595#1900C7C80000510F
(1753981495.567194) can0 596#918A00003900171A
(1753981495.567446) can0 597#8573000000000000
(1753981495.567570) can0 598#00000000C368F112
(1753981495.567820) can0 599#0800000000000000
(1753981495.568070) can0 59C#0000000000000000
(1753981495.568322) can0 59E#00000000510F0000
(1753981495.568569) can0 5A3#4F0000008C7D8C7D
(1753981495.568870) can0 5D5#000000A4C8C80015
(1753981495.569098) can0 5D6#C7C80000171A3B5A
(1753981495.569355) can0 5D7#0280000000000000
(1753981495.569589) can0 5D8#41AA15007300510F
(1753981495.572708) can0 7E4#0322011100000000
(1753981495.581323) can0 7EC#1019620111F80000
(1753981495.581679) can0 7E4#3000000000000000
(1753981495.591327) can0 7EC#21000000007B0000
(1753981495.601312) can0 7EC#22003400000BB100
(1753981495.611316) can0 7EC#230006D03461AAAA
(1753981495.650865) can0 7E4#0322010100000000
(1753981495.656362) can0 7EC#103E620101FFF7E7
(1753981495.656708) can0 7E4#3000000000000000
(1753981495.664713) can0 594#241E2823E6A50000
(1753981495.664949) can0 491#3900000000000004
(1753981495.665198) can0 493#000D306900003A02
(1753981495.665429) can0 4DD#0000000000000100
(1753981495.665697) can0 4DE#00F11900F0D43E00
(1753981495.665929) can0 4E2#22014F010000D19E
(1753981495.666226) can0 542#AA1A00000000FFFF
(1753981495.666476) can0 595#1900C7C80000520F
(1753981495.666724) can0 596#218A00003900171A
(1753981495.666928) can0 597#0573000000000000
(1753981495.667195) can0 598#00000000C368F112
(1753981495.667321) can0 599#0800000000000000
(1753981495.667698) can0 59C#0000000000000000
(1753981495.667822) can0 59E#00000000520F0000
(1753981495.668075) can0 5A3#4F0000008C7D8C7D
(1753981495.668323) can0 5D5#000000A4C8C80015
(1753981495.668573) can0 5D6#C7C80000171A91B3
(1753981495.668854) can0 5D7#0280000000000000
(1753981495.669102) can0 5D8#41AA15007300520F
(1753981495.669351) can0 7EC#21FFA50000000007
(1753981495.676362) can0 7EC#2200000F521A1718
(1753981495.686369) can0 7EC#23171719000019C8
(1753981495.696367) can0 7EC#2442C73800008A00
(1753981495.706334) can0 7EC#25033514000323BB
(1753981495.716318) can0 7EC#2600012B2200011D
(1753981495.726324) can0 7EC#274000C76CD80119
(1753981495.736359) can0 7EC#28997FFF7FFF01E9
(1753981495.764752) can0 594#241E2823E6A50000
(1753981495.764935) can0 491#3900000000000004
(1753981495.765229) can0 493#000D306900003A02
(1753981495.765477) can0 4DD#0000000000000100
(1753981495.765729) can0 4DE#00F11900F0D43E00
(1753981495.765946) can0 4E2#22014F010000D19E
(1753981495.766198) can0 542#AA1A00000000FFFF
(1753981495.766448) can0 595#1900C7C80000510F
(1753981495.766696) can0 596#228A00003900171A
(1753981495.766947) can0 597#8573000000000000
(1753981495.767198) can0 598#00000000C368F112
(1753981495.767321) can0 599#0800000000000000
(1753981495.767570) can0 59C#0000000000000000
(1753981495.767821) can0 59E#00000000510F0000
(1753981495.768069) can0 5A3#4F0000008C7D8C7D
(1753981495.768329) can0 5D5#000000A4C8C80015
(1753981495.768574) can0 5D6#C7C80000171A91B3
(1753981495.768805) can0 5D7#0280000000000000
(1753981495.769072) can0 5D8#41AA15007300510F
(1753981495.823334) can0 7E4#0322010500000000
(1753981495.831365) can0 7EC#102E620105003FFF
(1753981495.831699) can0 7E4#3000000000000000
(1753981495.841364) can0 7EC#2190000000000000
(1753981495.851316) can0 7EC#220000198A99191E
(1753981495.861333) can0 7EC#23242328000164F1
(1753981495.864740) can0 594#241E2823E6A50000
(1753981495.864997) can0 491#3900000000000004
(1753981495.865228) can0 493#000D306900003A02
(1753981495.865482) can0 4DD#0000000000000100
(1753981495.865678) can0 4DE#00F11900F0D43E00
(1753981495.865929) can0 4E2#22014F010000D19E
(1753981495.866197) can0 542#AA1A00000000FFFF
(1753981495.866451) can0 595#1900C7C80000520F
(1753981495.866700) can0 596#2D8A00003900171A
(1753981495.866951) can0 597#0573000000000000
(1753981495.867200) can0 598#00000000C368F112
(1753981495.867306) can0 599#0800000000000000
(1753981495.867701) can0 59C#0000000000000000
(1753981495.867803) can0 59E#00000000520F0000
(1753981495.868075) can0 5A3#4F0000008C7D8C7D
(1753981495.868324) can0 5D5#000000A4C8C80015
(1753981495.868574) can0 5D6#C7C80000171A225A
(1753981495.868826) can0 5D7#0280000000000000
(1753981495.869073) can0 5D8#41AA15007300520F
(1753981495.871303) can0 7EC#24AA03E800001100
(1753981495.881367) can0 7EC#25AA0000C8C80100
(1753981495.891365) can0 7EC#261200000000AAAA
(1753981495.937716) can0 7E4#0322011100000000
(1753981495.946368) can0 7EC#1019620111F80000
(1753981495.946731) can0 7E4#3000000000000000
(1753981495.956325) can0 7EC#21000000007B0000
(1753981495.964735) can0 594#241E2823E6A50000
(1753981495.964952) can0 491#3900000000000004
(1753981495.965203) can0 493#000D306900003A02
(1753981495.965452) can0 4DD#0000000000000100
(1753981495.965702) can0 4DE#00F11900F0D43E00
(1753981495.965950) can0 4E2#22014F010000D19E
(1753981495.966202) can0 542#AA1A00000000FFFF
(1753981495.966455) can0 595#1900C7C80000520F
(1753981495.966702) can0 596#3B8A00003900171A
(1753981495.966948) can0 597#8573000000000000
(1753981495.967181) can0 598#00000000C368F112
(1753981495.967305) can0 599#0800000000000000
(1753981495.967574) can0 59C#0000000000000000
(1753981495.967952) can0 59E#00000000520F0000
(1753981495.968055) can0 5A3#4F0000008C7D8C7D
(1753981495.968327) can0 5D5#000000A4C8C80015
(1753981495.968576) can0 5D6#C7C80000171A225A
(1753981495.968826) can0 5D7#0280000000000000
(1753981495.969077) can0 5D8#41AA15007300520F
(1753981495.969324) can0 7EC#22003400000BB100
(1753981495.976367) can0 7EC#230006D03461AAAA
(1753981496.017094) can0 7E4#0322010100000000
(1753981496.026324) can0 7EC#103E620101FFF7E7
(1753981496.026551) can0 7E4#3000000000000000
(1753981496.036321) can0 7EC#21FFA50000000007
(1753981496.046347) can0 7EC#2200000F521A1718
(1753981496.056318) can0 7EC#23171719000019C8
(1753981496.064708) can0 594#241E2823E6A50000
(1753981496.064926) can0 491#3900000000000004
(1753981496.065175) can0 493#000D306900003A02
(1753981496.065426) can0 4DD#0000000000000100
(1753981496.065675) can0 4DE#00F11900F0D43E00
(1753981496.065927) can0 4E2#22014F010000D19E
(1753981496.066176) can0 542#AA1A00000000FFFF
(1753981496.066425) can0 595#1900C7C80000520F
(1753981496.066675) can0 596#838A00003900171A
(1753981496.066925) can0 597#0573000000000000
(1753981496.067175) can0 598#00000000C368F112
(1753981496.067450) can0 599#0800000000000000
(1753981496.067573) can0 59C#0000000000000000
(1753981496.067947) can0 59E#00000000520F0000
(1753981496.068191) can0 5A3#4F0000008C7D8C7D
(1753981496.068326) can0 5D5#000000A4C8C80015
(1753981496.068551) can0 5D6#C7C80000171A3BB3
(1753981496.068819) can0 5D7#0280000000000000
(1753981496.069066) can0 5D8#41AA15007300520F
(1753981496.069316) can0 7EC#2442C73800008A00
(1753981496.076329) can0 7EC#25033514000323BB
(1753981496.086363) can0 7EC#2600012B2200011D
(1753981496.096365) can0 7EC#274000C76CD80119
(1753981496.106348) can0 7EC#28997FFF7FFF01E9
(1753981496.164701) can0 594#241E2823E6A50000
(1753981496.164928) can0 491#3900000000000004
(1753981496.165179) can0 493#000D306900003A02
(1753981496.165428) can0 4DD#0000000000000100
(1753981496.165679) can0 4DE#00F11900F0D43E00
(1753981496.165926) can0 4E2#22014F010000D19E
(1753981496.166178) can0 542#AA1A00000000FFFF
(1753981496.166427) can0 595#1900C7C80000510F
(1753981496.166678) can0 596#918A00003900171A
(1753981496.166928) can0 597#8573000000000000
(1753981496.167178) can0 598#00000000C368F112
(1753981496.167303) can0 599#0800000000000000
(1753981496.167676) can0 59C#0000000000000000
(1753981496.167803) can0 59E#00000000510F0000
(1753981496.168054) can0 5A3#4F0000008C7D8C7D
(1753981496.168302) can0 5D5#000000A4C8C80015
(1753981496.168554) can0 5D6#C7C80000171A3BB3
(1753981496.168807) can0 5D7#0280000000000000
(1753981496.169054) can0 5D8#41AA15007300510F
(1753981496.237065) can0 7E4#0322010500000000
(1753981496.246317) can0 7EC#102E620105003FFF
(1753981496.246674) can0 7E4#3000000000000000
(1753981496.256325) can0 7EC#2190000000000000
(1753981496.264736) can0 594#241E2823E6A50000
(1753981496.264961) can0 491#3900000000000004
(1753981496.265209) can0 493#000D306900003A02
(1753981496.265461) can0 4DD#0000000000000100
(1753981496.265690) can0 4DE#00F11900F0D43E00
(1753981496.265959) can0 4E2#22014F010000D19E
(1753981496.266191) can0 542#AA1A00000000FFFF
(1753981496.266441) can0 595#1900C7C80000520F
(1753981496.266692) can0 596#218A00003900171A
(1753981496.266944) can0 597#0573000000000000
(1753981496.267191) can0 598#00000000C368F112
(1753981496.267440) can0 599#0800000000000000
(1753981496.267690) can0 59C#0000000000000000
(1753981496.267941) can0 59E#00000000520F0000
(1753981496.268192) can0 5A3#4F0000008C7D8C7D
(1753981496.268317) can0 5D5#000000A4C8C80015
(1753981496.268565) can0 5D6#C7C80000171A915A
(1753981496.268821) can0 5D7#0280000000000000
(1753981496.269064) can0 5D8#41AA15007300520F
(1753981496.269317) can0 7EC#220000198A99191E
(1753981496.276334) can0 7EC#23242328000164F1
(1753981496.286310) can0 7EC#24AA03E800001100
(1753981496.296322) can0 7EC#25AA0000C8C80100
(1753981496.306341) can0 7EC#261200000000AAAA
(1753981496.350210) can0 7E4#0322011100000000
(1753981496.356327) can0 7EC#1019620111F80000
(1753981496.356706) can0 7E4#3000000000000000
(1753981496.364711) can0 594#241E2823E6A50000
(1753981496.364926) can0 491#3900000000000004
(1753981496.365175) can0 493#000D306900003A02
(1753981496.365461) can0 4DD#0000000000000100
(1753981496.365714) can0 4DE#00F11900F0D43E00
(1753981496.365944) can0 4E2#22014F010000D19E
(1753981496.366193) can0 542#AA1A00000000FFFF
(1753981496.366443) can0 595#1900C7C80000520F
(1753981496.366693) can0 596#228A00003900171A
(1753981496.366942) can0 597#8573000000000000
(1753981496.367191) can0 598#00000000C368F112
(1753981496.367444) can0 599#0800000000000000
(1753981496.367691) can0 59C#0000000000000000
(1753981496.367940) can0 59E#00000000520F0000
(1753981496.368071) can0 5A3#4F0000008C7D8C7D
(1753981496.368318) can0 5D5#000000A4C8C80015
(1753981496.368565) can0 5D6#C7C80000171A915A
(1753981496.368839) can0 5D7#0280000000000000
(1753981496.369066) can0 5D8#41AA15007300520F
(1753981496.369320) can0 7EC#21000000007B0000
(1753981496.376329) can0 7EC#22003400000BB100
(1753981496.386354) can0 7EC#230006D03461AAAA
(1753981496.416447) can0 7E4#0322010100000000
(1753981496.426332) can0 7EC#103E620101FFF7E7
(1753981496.426690) can0 7E4#3000000000000000
(1753981496.436324) can0 7EC#21FFA50000000007
(1753981496.446357) can0 7EC#2200000F511A1718
(1753981496.456358) can0 7EC#23171719000019C8
(1753981496.464725) can0 594#241E2823E6A50000
(1753981496.464981) can0 491#3900000000000004
(1753981496.465194) can0 493#000D306900003A02
(1753981496.465444) can0 4DD#0000000000000100
(1753981496.465702) can0 4DE#00F11900F0D43E00
(1753981496.465948) can0 4E2#22014F010000D19E
(1753981496.466193) can0 542#AA1A00000000FFFF
(1753981496.466447) can0 595#1900C7C80000510F
(1753981496.466694) can0 596#2D8A00003900171A
(1753981496.466940) can0 597#0573000000000000
(1753981496.467194) can0 598#00000000C368F112
(1753981496.467434) can0 599#0800000000000000
(1753981496.467693) can0 59C#0000000000000000
(1753981496.467816) can0 59E#00000000510F0000
(1753981496.468191) can0 5A3#4F0000008C7D8C7D
(1753981496.468317) can0 5D5#000000A4C8C80015
(1753981496.468567) can0 5D6#C7C80000171A22B3
(1753981496.468825) can0 5D7#0280000000000000
(1753981496.469066) can0 5D8#41AA15007300510F
(1753981496.469319) can0 7EC#2442C73200008A00
(1753981496.476332) can0 7EC#25033514000323BB
(1753981496.486362) can0 7EC#2600012B2200011D
(1753981496.496329) can0 7EC#274000C76CD80119
(1753981496.506363) can0 7EC#28997FFF7FFF01E9
(1753981496.540196) can0 7E4#0322010500000000
(1753981496.546326) can0 7EC#102E620105003FFF
(1753981496.546683) can0 7E4#3000000000000000
(1753981496.556348) can0 7EC#2190000000000000
(1753981496.564779) can0 594#241E2823E6A50000
(1753981496.564989) can0 491#3900000000000004
(1753981496.565231) can0 493#000D306900003A02
(1753981496.565447) can0 497#140000B400000000
(1753981496.565694) can0 498#0000000000000000
(1753981496.565980) can0 4DD#0000000000000100
(1753981496.566205) can0 4DE#00F11900F0D43E00
(1753981496.566433) can0 4E2#22014F010000D19E
(1753981496.566685) can0 542#AA1A00000000FFFF
(1753981496.566932) can0 595#1900C7C80000510F
(1753981496.567190) can0 596#3B8A00003900171A
(1753981496.567434) can0 597#8573000000000000
(1753981496.567685) can0 598#00000000C368F112
(1753981496.567808) can0 599#0800000000000000
(1753981496.568185) can0 59C#0000000000000000
(1753981496.568309) can0 59E#00000000510F0000
(1753981496.568559) can0 5A3#4F0000008C7D8C7D
(1753981496.568808) can0 5D5#000000A4C8C80015
(1753981496.569058) can0 5D6#C7C80000171A22B3
(1753981496.569307) can0 5D7#0280000000000000
(1753981496.569558) can0 5D8#41AA15007300510F
(1753981496.569806) can0 7EC#220000198A99191E
(1753981496.576345) can0 7EC#23242328000164F1
(1753981496.586322) can0 7EC#24AA03E800001100
(1753981496.596354) can0 7EC#25AA0000C8C80100
(1753981496.606325) can0 7EC#261200000000AAAA
(1753981496.645203) can0 7E4#0322011100000000
(1753981496.651325) can0 7EC#1019620111F80000
(1753981496.651685) can0 7E4#3000000000000000
(1753981496.661361) can0 7EC#21000000007B0000
(1753981496.664816) can0 594#241E2823E6A50000
(1753981496.664937) can0 491#3900000000000004
(1753981496.665228) can0 493#000D306900003A02
(1753981496.665477) can0 4DD#0000000000000100
(1753981496.665730) can0 4DE#00F11900F0D43E00
(1753981496.665938) can0 4E2#22014F010000D19E
(1753981496.666226) can0 542#AA1A00000000FFFF
(1753981496.666475) can0 595#1900C7C80000520F
(1753981496.666697) can0 596#838A00003900171A
(1753981496.666945) can0 597#0573000000000000
(1753981496.667198) can0 598#00000000C368F112
(1753981496.667448) can0 599#0800000000000000
(1753981496.667699) can0 59C#0000000000000000
(1753981496.667948) can0 59E#00000000520F0000
(1753981496.668199) can0 5A3#4F0000008C7D8C7D
(1753981496.668323) can0 5D5#000000A4C8C80015
(1753981496.668570) can0 5D6#C7C80000171A3B5A
(1753981496.668826) can0 5D7#0280000000000000
(1753981496.669072) can0 5D8#41AA15007300520F
(1753981496.671325) can0 7EC#22003400000BB100
(1753981496.681326) can0 7EC#230006D03461AAAA
(1753981496.733969) can0 7E4#0322010100000000
(1753981496.741354) can0 7EC#103E620101FFF7E7
(1753981496.741705) can0 7E4#3000000000000000
(1753981496.751332) can0 7EC#21FFA50000000007
(1753981496.761330) can0 7EC#2200000F521A1718
(1753981496.764767) can0 594#241E2823E6A50000
(1753981496.764960) can0 491#3900000000000004
(1753981496.765209) can0 493#000D306900003A02
(1753981496.765458) can0 4DD#0000000000000100
(1753981496.765709) can0 4DE#00F11900F0D43E00
(1753981496.765959) can0 4E2#22014F010000D19E
(1753981496.766190) can0 542#AA1A00000000FFFF
(1753981496.766461) can0 595#1900C7C80000520F
(1753981496.766711) can0 596#918A00003900171A
(1753981496.766950) can0 597#8573000000000000
(1753981496.767185) can0 598#00000000C368F112
(1753981496.767434) can0 599#0800000000000000
(1753981496.767681) can0 59C#0000000000000000
(1753981496.767931) can0 59E#00000000520F0000
(1753981496.768184) can0 5A3#4F0000008C7D8C7D
(1753981496.768305) can0 5D5#000000A4C8C80015
(1753981496.768559) can0 5D6#C7C80000171A3B5A
(1753981496.768809) can0 5D7#0280000000000000
(1753981496.769060) can0 5D8#41AA15007300520F
(1753981496.771315) can0 7EC#23171719000019C8
(1753981496.781323) can0 7EC#2442C73200008A00
(1753981496.791373) can0 7EC#25033514000323BB
(1753981496.801371) can0 7EC#2600012B2200011D
(1753981496.811324) can0 7EC#274000C76CD90119
(1753981496.821321) can0 7EC#28997FFF7FFF01E9
(1753981496.864871) can0 594#241E2823E6A50000
(1753981496.864986) can0 491#3900000000000004
(1753981496.865237) can0 493#000D306900003A02
(1753981496.865487) can0 4DD#0000000000000100
(1753981496.865736) can0 4DE#00F11900F0D43E00
(1753981496.865986) can0 4E2#22014F010000D19E
(1753981496.866237) can0 542#AA1A00000000FFFF
(1753981496.866485) can0 595#1900C7C80000520F
(1753981496.866738) can0 596#218A00003900171A
(1753981496.866989) can0 597#0573000000000000
(1753981496.867204) can0 598#00000000C368F112
(1753981496.867458) can0 599#0800000000000000
(1753981496.867706) can0 59C#0000000000000000
(1753981496.867958) can0 59E#00000000520F0000
(1753981496.868204) can0 5A3#4F0000008C7D8C7D
(1753981496.868331) can0 5D5#000000A4C8C80015
(1753981496.868580) can0 5D6#C7C80000171A91B3
(1753981496.868831) can0 5D7#0280000000000000
(1753981496.869083) can0 5D8#41AA15007300520F
(1753981496.873337) can0 7E4#0322010500000000
(1753981496.881378) can0 7EC#102E620105003FFF
(1753981496.881736) can0 7E4#3000000000000000
(1753981496.891357) can0 7EC#2190000000000000
(1753981496.901325) can0 7EC#220000198A99191E
(1753981496.911375) can0 7EC#23242328000164F1
(1753981496.921369) can0 7EC#24AA03E800001100
(1753981496.931344) can0 7EC#25AA0000C8C80100
(1753981496.941353) can0 7EC#261200000000AAAA
(1753981496.964885) can0 594#241E2823E6A50000
(1753981496.964972) can0 491#3900000000000004
(1753981496.965190) can0 493#000D306900003A02
(1753981496.965439) can0 4DD#0000000000000100
(1753981496.965688) can0 4DE#00F11900F0D43E00
(1753981496.965940) can0 4E2#22014F010000D19E
(1753981496.966188) can0 542#AA1A00000000FFFF
(1753981496.966437) can0 595#1900C7C80000510F
(1753981496.966687) can0 596#228A00003900171A
(1753981496.966937) can0 597#8573000000000000
(1753981496.967186) can0 598#00000000C368F112
(1753981496.967438) can0 599#0800000000000000
(1753981496.967689) can0 59C#0000000000000000
(1753981496.967937) can0 59E#00000000510F0000
(1753981496.968062) can0 5A3#4F0000008C7D8C7D
(1753981496.968312) can0 5D5#000000A4C8C80015
(1753981496.968563) can0 5D6#C7C80000171A91B3
(1753981496.968813) can0 5D7#0280000000000000
(1753981496.969065) can0 5D8#41AA15007300510F
(1753981496.972066) can0 7E4#0322011100000000
(1753981496.981378) can0 7EC#1019620111F80000
(1753981496.981735) can0 7E4#3000000000000000
(1753981496.991324) can0 7EC#21000000007B0000
(1753981497.001383) can0 7EC#22003400000BB100
(1753981497.011337) can0 7EC#230006D03461AAAA
(1753981497.048338) can0 7E4#0322010100000000
(1753981497.056347) can0 7EC#103E620101FFF7E7
(1753981497.056714) can0 7E4#3000000000000000
(1753981497.064751) can0 594#241E2823E6A50000
(1753981497.064995) can0 491#3900000000000004
(1753981497.065237) can0 493#000D306900003A02
(1753981497.065492) can0 4DD#0000000000000100
(1753981497.065739) can0 4DE#00F11900F0D43E00
(1753981497.065987) can0 4E2#22014F010000D19E
(1753981497.066239) can0 542#AA1A00000000FFFF
(1753981497.066458) can0 595#1900C7C80000510F
(1753981497.066708) can0 596#2D8A00003900171A
(1753981497.066958) can0 597#0573000000000000
(1753981497.067207) can0 598#00000000C368F112
(1753981497.067457) can0 599#0800000000000000
(1753981497.067711) can0 59C#0000000000000000
(1753981497.067960) can0 59E#00000000510F0000
(1753981497.068210) can0 5A3#4F0000008C7D8C7D
(1753981497.068314) can0 5D5#000000A4C8C80015
(1753981497.068582) can0 5D6#C7C80000171A225A
(1753981497.068836) can0 5D7#0280000000000000
(1753981497.069083) can0 5D8#41AA15007300510F
(1753981497.069336) can0 7EC#21FFA50000000007
(1753981497.076372) can0 7EC#2200000F511A1718
(1753981497.086352) can0 7EC#23171719000019C8
(1753981497.096374) can0 7EC#2442C73800008A00
(1753981497.106329) can0 7EC#25033514000323BB
(1753981497.116351) can0 7EC#2600012B2200011D
(1753981497.126342) can0 7EC#274000C76CD90119
(1753981497.136350) can0 7EC#28997FFF7FFF01E9
(1753981497.164703) can0 594#241E2823E6A50000
(1753981497.164936) can0 491#3900000000000004
(1753981497.165186) can0 493#000D306900003A02
(1753981497.165436) can0 4DD#0000000000000100
(1753981497.165685) can0 4DE#00F11900F0D43E00
(1753981497.165937) can0 4E2#22014F010000D19E
(1753981497.166187) can0 542#AA1A00000000FFFF
(1753981497.166436) can0 595#1900C7C80000520F
(1753981497.166686) can0 596#3B8A00003900171A
(1753981497.166938) can0 597#8573000000000000
(1753981497.167189) can0 598#00000000C368F112
(1753981497.167438) can0 599#0800000000000000
(1753981497.167702) can0 59C#0000000000000000
(1753981497.167951) can0 59E#00000000520F0000
(1753981497.168201) can0 5A3#4F0000008C7D8C7D
(1753981497.168322) can0 5D5#000000A4C8C80015
(1753981497.168572) can0 5D6#C7C80000171A225A
(1753981497.168829) can0 5D7#0280000000000000
(1753981497.169075) can0 5D8#41AA15007300520F
(1753981497.180238) can0 7E4#0322010500000000
(1753981497.186342) can0 7EC#102E620105003FFF
(1753981497.186704) can0 7E4#3000000000000000
(1753981497.196359) can0 7EC#2190000000000000
(1753981497.206343) can0 7EC#220000198A99191E
(1753981497.216332) can0 7EC#23242328000164F1
(1753981497.226325) can0 7EC#24AA03E800001100
(1753981497.236344) can0 7EC#25AA0000C8C80100
(1753981497.246341) can0 7EC#261200000000AAAA
(1753981497.264845) can0 594#241E2823E6A50000
(1753981497.264938) can0 491#3900000000000004
(1753981497.265200) can0 493#000D306900003A02
(1753981497.265453) can0 4DD#0000000000000100
(1753981497.265702) can0 4DE#00F11900F0D43E00
(1753981497.265950) can0 4E2#22014F010000D19E
(1753981497.266203) can0 542#AA1A00000000FFFF
(1753981497.266451) can0 595#1900C7C80000520F
(1753981497.266701) can0 596#838A00003900171A
(1753981497.266950) can0 597#0573000000000000
(1753981497.267200) can0 598#00000000C368F112
(1753981497.267453) can0 599#0800000000000000
(1753981497.267701) can0 59C#0000000000000000
(1753981497.267938) can0 59E#00000000520F0000
(1753981497.268208) can0 5A3#4F0000008C7D8C7D
(1753981497.268331) can0 5D5#000000A4C8C80015
(1753981497.268573) can0 5D6#C7C80000171A3BB3
(1753981497.268825) can0 5D7#0280000000000000
(1753981497.269075) can0 5D8#41AA15007300520F
(1753981497.281485) can0 7E4#0322011100000000
(1753981497.291345) can0 7EC#1019620111F80000
(1753981497.291689) can0 7E4#3000000000000000
(1753981497.301340) can0 7EC#21000000007B0000
(1753981497.311341) can0 7EC#22003400000BB100
(1753981497.321343) can0 7EC#230006D03461AAAA
(1753981497.359587) can0 7E4#0322010100000000
(1753981497.364713) can0 594#241E2823E6A50000
(1753981497.364941) can0 491#3900000000000004
(1753981497.365190) can0 493#000D306900003A02
(1753981497.365440) can0 4DD#0000000000000100
(1753981497.365690) can0 4DE#00F11900F0D43E00
(1753981497.365942) can0 4E2#22014F010000D19E
(1753981497.366190) can0 542#AA1A00000000FFFF
(1753981497.366440) can0 595#1900C7C80000510F
(1753981497.366691) can0 596#918A00003900171A
(1753981497.366939) can0 597#8573000000000000
(1753981497.367192) can0 598#00000000C368F112
(1753981497.367439) can0 599#0800000000000000
(1753981497.367689) can0 59C#0000000000000000
(1753981497.367940) can0 59E#00000000510F0000
(1753981497.368188) can0 5A3#4F0000008C7D8C7D
(1753981497.368315) can0 5D5#000000A4C8C80015
(1753981497.368565) can0 5D6#C7C80000171A3BB3
(1753981497.368814) can0 5D7#0280000000000000
(1753981497.369065) can0 5D8#41AA15007300510F
(1753981497.369315) can0 7EC#103E620101FFF7E7
(1753981497.369565) can0 7E4#3000000000000000
(1753981497.376344) can0 7EC#21FFA50000000007
(1753981497.386344) can0 7EC#2200000F511A1718
(1753981497.396330) can0 7EC#23171719000019C8
(1753981497.406340) can0 7EC#2442C73800008A00
(1753981497.416344) can0 7EC#25033514000323BB
(1753981497.426330) can0 7EC#2600012B2200011D
(1753981497.436342) can0 7EC#274000C76CD90119
(1753981497.446363) can0 7EC#28997FFF7FFF01E9
(1753981497.464843) can0 594#241E2823E6A50000
(1753981497.464941) can0 491#3900000000000004
(1753981497.465202) can0 493#000D306900003A02
(1753981497.465451) can0 4DD#0000000000000100
(1753981497.465703) can0 4DE#00F11900F0D43E00
(1753981497.465942) can0 4E2#22014F010000D19E
(1753981497.466192) can0 542#AA1A00000000FFFF
(1753981497.466453) can0 595#1900C7C80000520F
(1753981497.466690) can0 596#218A00003900171A
(1753981497.466954) can0 597#0573000000000000
(1753981497.467202) can0 598#00000000C368F112
(1753981497.467452) can0 599#0800000000000000
(1753981497.467704) can0 59C#0000000000000000
(1753981497.467953) can0 59E#00000000520F0000
(1753981497.468206) can0 5A3#4F0000008C7D8C7D
(1753981497.468454) can0 5D5#000000A4C8C80015
(1753981497.468579) can0 5D6#C7C80000171A915A
(1753981497.468829) can0 5D7#0280000000000000
(1753981497.469077) can0 5D8#41AA15007300520F
(1753981497.500207) can0 7E4#0322010500000000
(1753981497.506330) can0 7EC#102E620105003FFF
(1753981497.506691) can0 7E4#3000000000000000
(1753981497.516331) can0 7EC#2190000000000000
(1753981497.526333) can0 7EC#220000198A99191E
(1753981497.536341) can0 7EC#23242328000164F1
(1753981497.546371) can0 7EC#24AA03E800001100
(1753981497.556343) can0 7EC#25AA0000C8C80100
(1753981497.564873) can0 594#241E2823E6A50000
(1753981497.565107) can0 491#3900000000000004
(1753981497.565192) can0 493#000D306900003A02
(1753981497.565479) can0 497#220000B400000000
(1753981497.565693) can0 498#0000000000000000
(1753981497.565942) can0 4DD#0000000000000100
(1753981497.566202) can0 4DE#00F11900F0D43E00
(1753981497.566452) can0 4E2#22014F010000D19E
(1753981497.566702) can0 542#AA1A00000000FFFF
(1753981497.566951) can0 595#1900C7C80000520F
(1753981497.567201) can0 596#228A00003900171A
(1753981497.567455) can0 597#8573000000000000
(1753981497.567702) can0 598#00000000C368F112
(1753981497.567951) can0 599#0800000000000000
(1753981497.568202) can0 59C#0000000000000000
(1753981497.568451) can0 59E#00000000520F0000
(1753981497.568697) can0 5A3#4F0000008C7D8C7D
(1753981497.568828) can0 5D5#000000A4C8C80015
(1753981497.569078) can0 5D6#C7C80000171A915A
(1753981497.569330) can0 5D7#0280000000000000
(1753981497.569568) can0 5D8#41AA15007300520F
(1753981497.569822) can0 7EC#261200000000AAAA
(1753981497.598969) can0 7E4#0322011100000000
(1753981497.606329) can0 7EC#1019620111F80000
(1753981497.606709) can0 7E4#3000000000000000
(1753981497.616331) can0 7EC#21000000007B0000
(1753981497.626341) can0 7EC#22003400000BB100
(1753981497.636337) can0 7EC#230006D03461AAAA
(1753981497.664871) can0 594#241E2823E6A50000
(1753981497.664994) can0 491#3900000000000004
(1753981497.665241) can0 493#000D306900003A02
(1753981497.665492) can0 4DD#0000000000000100
(1753981497.665745) can0 4DE#00F11900F0D43E00
(1753981497.665995) can0 4E2#22014F010000D19E
(1753981497.666248) can0 542#AA1A00000000FFFF
(1753981497.666493) can0 595#1900C7C80000510F
(1753981497.666740) can0 596#2D8A00003900171A
(1753981497.666996) can0 597#0573000000000000
(1753981497.667247) can0 598#00000000C368F112
(1753981497.667495) can0 599#0800000000000000
(1753981497.667743) can0 59C#0000000000000000
(1753981497.667993) can0 59E#00000000510F0000
(1753981497.668243) can0 5A3#4F0000008C7D8C7D
(1753981497.668370) can0 5D5#000000A4C8C80015
(1753981497.668618) can0 5D6#C7C80000171A22B3
(1753981497.668868) can0 5D7#0280000000000000
(1753981497.669121) can0 5D8#41AA15007300510F
(1753981497.673970) can0 7E4#0322010100000000
(1753981497.681353) can0 7EC#103E620101FFF7E7
(1753981497.681717) can0 7E4#3000000000000000
(1753981497.691381) can0 7EC#21FFA50000000007
(1753981497.701334) can0 7EC#2200000F511A1718
(1753981497.711350) can0 7EC#23171719000019C8
(1753981497.721333) can0 7EC#2442C73200008A00
(1753981497.731342) can0 7EC#25033514000323BB
(1753981497.741341) can0 7EC#2600012B2200011D
(1753981497.751344) can0 7EC#274000C76CDA0119
(1753981497.761337) can0 7EC#28997FFF7FFF01E9
(1753981497.764864) can0 594#241E2823E6A50000
(1753981497.764986) can0 491#3900000000000004
(1753981497.765208) can0 493#000D306900003A02
(1753981497.765452) can0 4DD#0000000000000100
(1753981497.765705) can0 4DE#00F11900F0D43E00
(1753981497.765953) can0 4E2#22014F010000D19E
(1753981497.766201) can0 542#AA1A00000000FFFF
(1753981497.766455) can0 595#1900C7C80000520F
(1753981497.766702) can0 596#3B8A00003900171A
(1753981497.766956) can0 597#8573000000000000
(1753981497.767207) can0 598#00000000C368F112
(1753981497.767445) can0 599#0800000000000000
(1753981497.767706) can0 59C#0000000000000000
(1753981497.767954) can0 59E#00000000520F0000
(1753981497.768206) can0 5A3#4F0000008C7D8C7D
(1753981497.768330) can0 5D5#000000A4C8C80015
(1753981497.768579) can0 5D6#C7C80000171A22B3
(1753981497.768820) can0 5D7#0280000000000000
(1753981497.769113) can0 5D8#41AA15007300520F
(1753981497.805259) can0 7E4#0322010500000000
(1753981497.811335) can0 7EC#102E620105003FFF
(1753981497.811716) can0 7E4#3000000000000000
(1753981497.821349) can0 7EC#2190000000000000
(1753981497.831351) can0 7EC#220000198A99191E
(1753981497.841384) can0 7EC#23242328000164F1
(1753981497.851335) can0 7EC#24AA03E800001100
(1753981497.861385) can0 7EC#25AA0000C8C80100
(1753981497.864884) can0 594#241E2823E6A50000
(1753981497.864976) can0 491#3900000000000004
(1753981497.865247) can0 493#000D306900003A02
(1753981497.865448) can0 4DD#0000000000000100
(1753981497.865697) can0 4DE#00F11900F0D43E00
(1753981497.865948) can0 4E2#22014F010000D19E
(1753981497.866197) can0 542#AA1A00000000FFFF
(1753981497.866448) can0 595#1900C7C80000510F
(1753981497.866698) can0 596#838A00003900171A
(1753981497.866947) can0 597#0573000000000000
(1753981497.867196) can0 598#00000000C368F112
(1753981497.867447) can0 599#0800000000000000
(1753981497.867698) can0 59C#0000000000000000
(1753981497.867947) can0 59E#00000000510F0000
(1753981497.868197) can0 5A3#4F0000008C7D8C7D
(1753981497.868322) can0 5D5#000000A4C8C80015
(1753981497.868571) can0 5D6#C7C80000171A3B5A
(1753981497.868828) can0 5D7#0280000000000000
(1753981497.869073) can0 5D8#41AA15007300510F
(1753981497.871328) can0 7EC#261200000000AAAA
(1753981497.915259) can0 7E4#0322011100000000
(1753981497.921332) can0 7EC#1019620111F80000
(1753981497.921718) can0 7E4#3000000000000000
(1753981497.931382) can0 7EC#21000000007B0000
(1753981497.941380) can0 7EC#22003400000BB100
(1753981497.951355) can0 7EC#230006D03461AAAA
(1753981497.964894) can0 594#241E2823E6A50000
(1753981497.964989) can0 491#3900000000000004
(1753981497.965220) can0 493#000D306900003A02
(1753981497.965448) can0 4DD#0000000000000100
(1753981497.965699) can0 4DE#00F11900F0D43E00
(1753981497.965955) can0 4E2#22014F010000D19E
(1753981497.966199) can0 542#AA1A00000000FFFF
(1753981497.966449) can0 595#1900C7C80000510F
(1753981497.966698) can0 596#918A00003900171A
(1753981497.966950) can0 597#8573000000000000
(1753981497.967200) can0 598#00000000C368F112
(1753981497.967448) can0 599#0800000000000000
(1753981497.967698) can0 59C#0000000000000000
(1753981497.967950) can0 59E#00000000510F0000
(1753981497.968197) can0 5A3#4F0000008C7D8C7D
(1753981497.968323) can0 5D5#000000A4C8C80015
(1753981497.968574) can0 5D6#C7C80000171A3B5A
(1753981497.968823) can0 5D7#0280000000000000
(1753981497.969074) can0 5D8#41AA15007300510F
(1753981497.980209) can0 7E4#0322010100000000
(1753981497.986336) can0 7EC#103E620101FFF7E7
(1753981497.986694) can0 7E4#3000000000000000
(1753981497.996376) can0 7EC#21FFA50000000007
(1753981498.006348) can0 7EC#2200000F511A1718
(1753981498.016341) can0 7EC#23171719000019C8
(1753981498.026376) can0 7EC#2442C73200008A00
(1753981498.036386) can0 7EC#25033514000323BB
(1753981498.046384) can0 7EC#2600012B2200011D
(1753981498.056358) can0 7EC#274000C76CDA0119
(1753981498.064840) can0 594#241E2823E6A50000
(1753981498.065076) can0 491#3900000000000004
(1753981498.065198) can0 493#000D306900003A02
(1753981498.065450) can0 4DD#0000000000000100
(1753981498.065699) can0 4DE#00F11900F0D43E00
(1753981498.065948) can0 4E2#22014F010000D19E
(1753981498.066201) can0 542#AA1A00000000FFFF
(1753981498.066448) can0 595#1900C7C80000510F
(1753981498.066700) can0 596#218A00003900171A
(1753981498.066949) can0 597#0573000000000000
(1753981498.067198) can0 598#00000000C368F112
(1753981498.067447) can0 599#0800000000000000
(1753981498.067722) can0 59C#0000000000000000
(1753981498.067948) can0 59E#00000000510F0000
(1753981498.068222) can0 5A3#4F0000008C7D8C7D
(1753981498.068448) can0 5D5#000000A4C8C80015
(1753981498.068572) can0 5D6#C7C80000171A91B3
(1753981498.068822) can0 5D7#0280000000000000
(1753981498.069094) can0 5D8#41AA15007300510F
(1753981498.069348) can0 7EC#28997FFF7FFF01E9
(1753981498.149013) can0 7E4#0322010500000000
(1753981498.156335) can0 7EC#102E620105003FFF
(1753981498.156701) can0 7E4#3000000000000000
(1753981498.164887) can0 594#241E2823E6A50000
(1753981498.165074) can0 491#3900000000000004
(1753981498.165374) can0 493#000D306900003A02
(1753981498.165448) can0 4DD#0000000000000100
(1753981498.165749) can0 4DE#00F11900F0D43E00
(1753981498.166001) can0 4E2#22014F010000D19E
(1753981498.166248) can0 542#AA1A00000000FFFF
(1753981498.166500) can0 595#1900C7C80000520F
(1753981498.166747) can0 596#228A00003900171A
(1753981498.166999) can0 597#8573000000000000
(1753981498.167217) can0 598#00000000C368F112
(1753981498.167468) can0 599#0800000000000000
(1753981498.167718) can0 59C#0000000000000000
(1753981498.167967) can0 59E#00000000520F0000
(1753981498.168220) can0 5A3#4F0000008C7D8C7D
(1753981498.168467) can0 5D5#000000A4C8C80015
(1753981498.168595) can0 5D6#C7C80000171A91B3
(1753981498.168877) can0 5D7#0280000000000000
(1753981498.169122) can0 5D8#41AA15007300520F
(1753981498.169376) can0 7EC#2190000000000000
(1753981498.176355) can0 7EC#220000198A99191E
(1753981498.186385) can0 7EC#23242328000164F1
(1753981498.196343) can0 7EC#24AA03E800001100
(1753981498.206363) can0 7EC#25AA0000C8C80100
(1753981498.216338) can0 7EC#261200000000AAAA
(1753981498.264836) can0 594#241E2823E6A50000
(1753981498.265072) can0 491#3900000000000004
(1753981498.265321) can0 493#000D306900003A02
(1753981498.265445) can0 4DD#0000000000000100
(1753981498.265697) can0 4DE#00F11900F0D43E00
(1753981498.265947) can0 4E2#22014F010000D19E
(1753981498.266197) can0 542#AA1A00000000FFFF
(1753981498.266480) can0 595#1900C7C80000510F
(1753981498.266718) can0 596#2D8A00003900171A
(1753981498.266957) can0 597#0573000000000000
(1753981498.267230) can0 598#00000000C368F112
(1753981498.267472) can0 599#0800000000000000
(1753981498.267722) can0 59C#0000000000000000
(1753981498.267971) can0 59E#00000000510F0000
(1753981498.268222) can0 5A3#4F0000008C7D8C7D
(1753981498.268475) can0 5D5#000000A4C8C80015
(1753981498.268596) can0 5D6#C7C80000171A225A
(1753981498.268874) can0 5D7#0280000000000000
(1753981498.269126) can0 5D8#41AA15007300510F
(1753981498.329640) can0 7E4#0322011100000000
(1753981498.336338) can0 7EC#1019620111F80000
(1753981498.336706) can0 7E4#3000000000000000
(1753981498.346358) can0 7EC#21000000007B0000
(1753981498.356343) can0 7EC#22003400000BB100
(1753981498.364838) can0 594#241E2823E6A50000
(1753981498.365075) can0 491#3900000000000004
(1753981498.365200) can0 493#000D306900003A02
(1753981498.365450) can0 4DD#0000000000000100
(1753981498.365700) can0 4DE#00F11900F0D43E00
(1753981498.365950) can0 4E2#22014F010000D19E
(1753981498.366200) can0 542#AA1A00000000FFFF
(1753981498.366451) can0 595#1900C7C80000520F
(1753981498.366700) can0 596#3B8A00003900171A
(1753981498.366951) can0 597#8573000000000000
(1753981498.367200) can0 598#00000000C368F112
(1753981498.367449) can0 599#0800000000000000
(1753981498.367699) can0 59C#0000000000000000
(1753981498.367950) can0 59E#00000000520F0000
(1753981498.368201) can0 5A3#4F0000008C7D8C7D
(1753981498.368450) can0 5D5#000000A4C8C80015
(1753981498.368574) can0 5D6#C7C80000171A225A
(1753981498.368823) can0 5D7#0280000000000000
(1753981498.369073) can0 5D8#41AA15007300520F
(1753981498.369323) can0 7EC#230006D03461AAAA
(1753981498.408976) can0 7E4#0322010100000000
(1753981498.416390) can0 7EC#103E620101FFF7E7
(1753981498.416737) can0 7E4#3000000000000000
(1753981498.426392) can0 7EC#21FFA50000000007
(1753981498.436364) can0 7EC#2200000F521A1718
(1753981498.446342) can0 7EC#23171719000019C8
(1753981498.456340) can0 7EC#2442C73800008A00
(1753981498.464863) can0 594#241E2823E6A50000
(1753981498.465090) can0 491#3900000000000004
(1753981498.465212) can0 493#000D306900003A02
(1753981498.465460) can0 4DD#0000000000000100
(1753981498.465712) can0 4DE#00F11900F0D43E00
(1753981498.465962) can0 4E2#22014F010000D19E
(1753981498.466252) can0 542#AA1A00000000FFFF
(1753981498.466492) can0 595#1900C7C80000520F
(1753981498.466743) can0 596#838A00003900171A
(1753981498.467019) can0 597#0573000000000000
(1753981498.467244) can0 598#00000000C368F112
(1753981498.467518) can0 599#0800000000000000
(1753981498.467740) can0 59C#0000000000000000
(1753981498.467994) can0 59E#00000000520F0000
(1753981498.468214) can0 5A3#4F0000008C7D8C7D
(1753981498.468460) can0 5D5#000000A4C8C80015
(1753981498.468705) can0 5D6#C7C80000171A3BB3
(1753981498.468877) can0 5D7#0280000000000000
(1753981498.469128) can0 5D8#41AA15007300520F
(1753981498.469338) can0 7EC#25033514000323BB
(1753981498.476352) can0 7EC#2600012B2200011D
(1753981498.486346) can0 7EC#274000C76CDA0119
(1753981498.496345) can0 7EC#28997FFF7FFF01E9
(1753981498.538970) can0 7E4#0322010500000000
(1753981498.546362) can0 7EC#102E620105003FFF
(1753981498.546728) can0 7E4#3000000000000000
(1753981498.556472) can0 7EC#2190000000000000
(1753981498.564895) can0 594#241E2823E6A50000
(1753981498.565081) can0 491#3900000000000004
(1753981498.565381) can0 493#000D306900003A02
(1753981498.565456) can0 497#110000B400000000
(1753981498.565724) can0 498#0000000000000000
(1753981498.566100) can0 4DD#0000000000000100
(1753981498.566226) can0 4DE#00F11900F0D43E00
(1753981498.566476) can0 4E2#22014F010000D19E
(1753981498.566725) can0 542#AA1A00000000FFFF
(1753981498.566972) can0 595#1900C7C80000510F
(1753981498.567227) can0 596#918A00003900171A
(1753981498.567476) can0 597#8573000000000000
(1753981498.567724) can0 598#00000000C368F112
(1753981498.567966) can0 599#0800000000000000
(1753981498.568205) can0 59C#0000000000000000
(1753981498.568454) can0 59E#00000000510F0000
(1753981498.568707) can0 5A3#4F0000008C7D8C7D
(1753981498.568954) can0 5D5#000000A4C8C80015
(1753981498.569078) can0 5D6#C7C80000171A3BB3
(1753981498.569329) can0 5D7#0280000000000000
(1753981498.569579) can0 5D8#41AA15007300510F
(1753981498.569828) can0 7EC#220000198A99191E
(1753981498.576362) can0 7EC#23242328000164F1
(1753981498.586365) can0 7EC#24AA03E800001100
(1753981498.596399) can0 7EC#25AA0000C8C80100
(1753981498.606345) can0 7EC#261200000000AAAA
(1753981498.654022) can0 7E4#0322011100000000
(1753981498.661349) can0 7EC#1019620111F80000
(1753981498.661710) can0 7E4#3000000000000000
(1753981498.664889) can0 594#241E2823E6A50000
(1753981498.665133) can0 491#3900000000000004
(1753981498.665382) can0 493#000D306900003A02
(1753981498.665508) can0 4DD#0000000000000100
(1753981498.665761) can0 4DE#00F11900F0D43E00
(1753981498.666004) can0 4E2#22014F010000D19E
(1753981498.666258) can0 542#AA1A00000000FFFF
(1753981498.666506) can0 595#1900C7C80000510F
(1753981498.666755) can0 596#218A00003900171A
(1753981498.667006) can0 597#0573000000000000
(1753981498.667259) can0 598#00000000C368F112
(1753981498.667509) can0 599#0800000000000000
(1753981498.667756) can0 59C#0000000000000000
(1753981498.668005) can0 59E#00000000510F0000
(1753981498.668258) can0 5A3#4F0000008C7D8C7D
(1753981498.668508) can0 5D5#000000A4C8C80015
(1753981498.668629) can0 5D6#C7C80000171A915A
(1753981498.668885) can0 5D7#0280000000000000
(1753981498.669132) can0 5D8#41AA15007300510F
(1753981498.671510) can0 7EC#21000000007B0000
(1753981498.681398) can0 7EC#22003400000BB100
(1753981498.691394) can0 7EC#230006D03461AAAA
(1753981498.727725) can0 7E4#0322010100000000
(1753981498.736473) can0 7EC#103E620101FFF7E7
(1753981498.736708) can0 7E4#3000000000000000
(1753981498.746473) can0 7EC#21FFA50000000007
(1753981498.756392) can0 7EC#2200000F511A1718
(1753981498.764866) can0 594#241E2823E6A50000
(1753981498.765102) can0 491#3900000000000004
(1753981498.765352) can0 493#000D306900003A02
(1753981498.765603) can0 4DD#0000000000000100
(1753981498.765725) can0 4DE#00F11900F0D43E00
(1753981498.765977) can0 4E2#22014F010000D19E
(1753981498.766255) can0 542#AA1A00000000FFFF
(1753981498.766505) can0 595#1900C7C80000510F
(1753981498.766758) can0 596#228A00003900171A
(1753981498.767006) can0 597#8573000000000000
(1753981498.767226) can0 598#00000000C368F112
(1753981498.767476) can0 599#0800000000000000
(1753981498.767727) can0 59C#0000000000000000
(1753981498.767977) can0 59E#00000000510F0000
(1753981498.768209) can0 5A3#4F0000008C7D8C7D
(1753981498.768331) can0 5D5#000000A4C8C80015
(1753981498.768604) can0 5D6#C7C80000171A915A
(1753981498.768854) can0 5D7#0280000000000000
(1753981498.769101) can0 5D8#41AA15007300510F
(1753981498.769352) can0 7EC#23171719000019C8
(1753981498.776352) can0 7EC#2442C73800008A00
(1753981498.786390) can0 7EC#25033514000323BB
(1753981498.796394) can0 7EC#2600012B2200011D
(1753981498.806393) can0 7EC#274000C76CDB0119
(1753981498.816519) can0 7EC#28997FFF7FFF01E9
(1753981498.864895) can0 594#241E2823E6A50000
(1753981498.865085) can0 491#3900000000000004
(1753981498.865381) can0 493#000D306900003A02
(1753981498.865632) can0 4DD#0000000000000100
(1753981498.865710) can0 4DE#00F11900F0D43E00
(1753981498.866009) can0 4E2#22014F010000D19E
(1753981498.866256) can0 542#AA1A00000000FFFF
(1753981498.866509) can0 595#1900C7C80000520F
(1753981498.866753) can0 596#2D8A00003900171A
(1753981498.866977) can0 597#0573000000000000
(1753981498.867229) can0 598#00000000C368F112
(1753981498.867478) can0 599#0800000000000000
(1753981498.867727) can0 59C#0000000000000000
(1753981498.867978) can0 59E#00000000520F0000
(1753981498.868226) can0 5A3#4F0000008C7D8C7D
(1753981498.868459) can0 5D5#000000A4C8C80015
(1753981498.868712) can0 5D6#C7C80000171A22B3
(1753981498.868894) can0 5D7#0280000000000000
(1753981498.869136) can0 5D8#41AA15007300520F
(1753981498.869505) can0 7E4#0322010500000000
(1753981498.876518) can0 7EC#102E620105003FFF
(1753981498.876707) can0 7E4#3000000000000000
(1753981498.886404) can0 7EC#2190000000000000
(1753981498.896397) can0 7EC#220000198A99191E
(1753981498.906352) can0 7EC#23242328000164F1
(1753981498.916473) can0 7EC#24AA03E800001100
(1753981498.926471) can0 7EC#25AA0000C8C80100
(1753981498.936380) can0 7EC#261200000000AAAA
(1753981498.964876) can0 594#241E2823E6A50000
(1753981498.965113) can0 491#3900000000000004
(1753981498.965362) can0 493#000D306900003A02
(1753981498.965610) can0 4DD#0000000000000100
(1753981498.965719) can0 4DE#00F11900F0D43E00
(1753981498.965970) can0 4E2#22014F010000D19E
(1753981498.966220) can0 542#AA1A00000000FFFF
(1753981498.966468) can0 595#1900C7C80000510F
(1753981498.966720) can0 596#3B8A00003900171A
(1753981498.966969) can0 597#8573000000000000
(1753981498.967217) can0 598#00000000C368F112
(1753981498.967465) can0 599#0800000000000000
(1753981498.967717) can0 59C#0000000000000000
(1753981498.967966) can0 59E#00000000510F0000
(1753981498.968221) can0 5A3#4F0000008C7D8C7D
(1753981498.968469) can0 5D5#000000A4C8C80015
(1753981498.968600) can0 5D6#C7C80000171A22B3
(1753981498.968832) can0 5D7#0280000000000000
(1753981498.969080) can0 5D8#41AA15007300510F
(1753981498.977720) can0 7E4#0322011100000000
(1753981498.986370) can0 7EC#1019620111F80000
(1753981498.986727) can0 7E4#3000000000000000
(1753981498.996489) can0 7EC#21000000007B0000
(1753981499.006361) can0 7EC#22003400000BB100
(1753981499.016365) can0 7EC#230006D03461AAAA
(1753981499.047761) can0 7E4#0322010100000000
(1753981499.056349) can0 7EC#103E620101FFF7E7
(1753981499.056712) can0 7E4#3000000000000000
(1753981499.064877) can0 594#241E2823E6A50000
(1753981499.065091) can0 491#3900000000000004
(1753981499.065343) can0 493#000D306900003A02
(1753981499.065596) can0 4DD#0000000000000100
(1753981499.065720) can0 4DE#00F11900F0D43E00
(1753981499.065969) can0 4E2#22014F010000D19E
(1753981499.066218) can0 542#AA1A00000000FFFF
(1753981499.066469) can0 595#1900C7C80000510F
(1753981499.066716) can0 596#838A00003900171A
(1753981499.066965) can0 597#0573000000000000
(1753981499.067212) can0 598#00000000C368F112
(1753981499.067488) can0 599#0800000000000000
(1753981499.067740) can0 59C#0000000000000000
(1753981499.067989) can0 59E#00000000510F0000
(1753981499.068221) can0 5A3#4F0000008C7D8C7D
(1753981499.068469) can0 5D5#000000A4C8C80015
(1753981499.068595) can0 5D6#C7C80000171A3B5A
(1753981499.068864) can0 5D7#0280000000000000
(1753981499.069114) can0 5D8#41AA15007300510F
(1753981499.069360) can0 7EC#21FFA50000000007
(1753981499.076352) can0 7EC#2200000F511A1718
(1753981499.086375) can0 7EC#23171719000019C8
(1753981499.096349) can0 7EC#2442C73800008A00
(1753981499.106485) can0 7EC#25033514000323BB
(1753981499.116501) can0 7EC#2600012B2200011D
(1753981499.126351) can0 7EC#274000C76CDB0119
(1753981499.136472) can0 7EC#28997FFF7FFF01E9
(1753981499.164879) can0 594#241E2823E6A50000
(1753981499.165113) can0 491#3900000000000004
(1753981499.165362) can0 493#000D306900003A02
(1753981499.165614) can0 4DD#0000000000000100
(1753981499.165745) can0 4DE#00F11900F0D43E00
(1753981499.165987) can0 4E2#22014F010000D19E
(1753981499.166207) can0 542#AA1A00000000FFFF
(1753981499.166480) can0 595#1900C7C80000520F
(1753981499.166707) can0 596#918A00003900171A
(1753981499.166957) can0 597#8573000000000000
(1753981499.167208) can0 598#00000000C368F112
(1753981499.167457) can0 599#0800000000000000
(1753981499.167707) can0 59C#0000000000000000
(1753981499.167957) can0 59E#00000000520F0000
(1753981499.168206) can0 5A3#4F0000008C7D8C7D
(1753981499.168458) can0 5D5#000000A4C8C80015
(1753981499.168707) can0 5D6#C7C80000171A3B5A
(1753981499.168831) can0 5D7#0280000000000000
(1753981499.169222) can0 5D8#41AA15007300520F
(1753981499.179001) can0 7E4#0322010500000000
(1753981499.186476) can0 7EC#102E620105003FFF
(1753981499.186708) can0 7E4#3000000000000000
(1753981499.196502) can0 7EC#2190000000000000
(1753981499.206355) can0 7EC#220000198A99191E
(1753981499.216379) can0 7EC#23242328000164F1
(1753981499.226474) can0 7EC#24AA03E800001100
(1753981499.236484) can0 7EC#25AA0000C8C80100
(1753981499.246374) can0 7EC#261200000000AAAA
(1753981499.264846) can0 594#241E2823E6A50000
(1753981499.265081) can0 491#3900000000000004
(1753981499.265332) can0 493#000D306900003A02
(1753981499.265582) can0 4DD#0000000000000100
(1753981499.265705) can0 4DE#00F11900F0D43E00
(1753981499.265957) can0 4E2#22014F010000D19E
(1753981499.266206) can0 542#AA1A00000000FFFF
(1753981499.266455) can0 595#1900C7C80000520F
(1753981499.266705) can0 596#218A00003900171A
(1753981499.266955) can0 597#0573000000000000
(1753981499.267206) can0 598#00000000C368F112
(1753981499.267456) can0 599#0800000000000000
(1753981499.267707) can0 59C#0000000000000000
(1753981499.267956) can0 59E#00000000520F0000
(1753981499.268203) can0 5A3#4F0000008C7D8C7D
(1753981499.268471) can0 5D5#000000A4C8C80015
(1753981499.268708) can0 5D6#C7C80000171A91B3
(1753981499.268990) can0 5D7#0280000000000000
(1753981499.269240) can0 5D8#41AA15007300520F
(1753981499.308367) can0 7E4#0322011100000000
(1753981499.316476) can0 7EC#1019620111F80000
(1753981499.316709) can0 7E4#3000000000000000
(1753981499.326481) can0 7EC#21000000007B0000
(1753981499.336472) can0 7EC#22003400000BB100
(1753981499.346470) can0 7EC#230006D03461AAAA
(1753981499.364865) can0 594#241E2823E6A50000
(1753981499.365096) can0 491#3900000000000004
(1753981499.365371) can0 493#000D306900003A02
(1753981499.365627) can0 4DD#0000000000000100
(1753981499.365712) can0 4DE#00F11900F0D43E00
(1753981499.365967) can0 4E2#22014F010000D19E
(1753981499.366222) can0 542#AA1A00000000FFFF
(1753981499.366471) can0 595#1900C7C80000520F
(1753981499.366720) can0 596#228A00003900171A
(1753981499.366970) can0 597#8573000000000000
(1753981499.367220) can0 598#00000000C368F112
(1753981499.367470) can0 599#0800000000000000
(1753981499.367720) can0 59C#0000000000000000
(1753981499.367957) can0 59E#00000000520F0000
(1753981499.368222) can0 5A3#4F0000008C7D8C7D
(1753981499.368471) can0 5D5#000000A4C8C80015
(1753981499.368708) can0 5D6#C7C80000171A91B3
(1753981499.368958) can0 5D7#0280000000000000
(1753981499.369221) can0 5D8#41AA15007300520F
(1753981499.378984) can0 7E4#0322010100000000
(1753981499.386506) can0 7EC#103E620101FFF7E7
(1753981499.386724) can0 7E4#3000000000000000
(1753981499.396478) can0 7EC#21FFA50000000007
(1753981499.406355) can0 7EC#2200000F521A1718
(1753981499.416489) can0 7EC#23171719000019C8
(1753981499.426359) can0 7EC#2442C73800008A00
(1753981499.436362) can0 7EC#25033514000323BB
(1753981499.446505) can0 7EC#2600012B2200011D
(1753981499.456349) can0 7EC#274000C76CDB0119
(1753981499.464881) can0 594#241E2823E6A50000
(1753981499.465117) can0 491#3900000000000004
(1753981499.465365) can0 493#000D306900003A02
(1753981499.465616) can0 4DD#0000000000000100
(1753981499.465850) can0 4DE#00F11900F0D43E00
(1753981499.465976) can0 4E2#22014F010000D19E
(1753981499.466221) can0 542#AA1A00000000FFFF
(1753981499.466457) can0 595#1900C7C80000520F
(1753981499.466706) can0 596#2D8A00003900171A
(1753981499.466971) can0 597#0573000000000000
(1753981499.467220) can0 598#00000000C368F112
(1753981499.467474) can0 599#0800000000000000
(1753981499.467723) can0 59C#0000000000000000
(1753981499.467972) can0 59E#00000000520F0000
(1753981499.468221) can0 5A3#4F0000008C7D8C7D
(1753981499.468474) can0 5D5#000000A4C8C80015
(1753981499.468709) can0 5D6#C7C80000171A225A
(1753981499.468974) can0 5D7#0280000000000000
(1753981499.469100) can0 5D8#41AA15007300520F
(1753981499.469347) can0 7EC#28997FFF7FFF01E9
(1753981499.525231) can0 7E4#0322010500000000
(1753981499.531475) can0 7EC#102E620105003FFF
(1753981499.531740) can0 7E4#3000000000000000
(1753981499.541485) can0 7EC#2190000000000000
(1753981499.551352) can0 7EC#220000198A99191E
(1753981499.561506) can0 7EC#23242328000164F1
(1753981499.564860) can0 594#241E2823E6A50000
(1753981499.565101) can0 491#3900000000000004
(1753981499.565349) can0 493#000D306900003A02
(1753981499.565599) can0 497#140000B400000000
(1753981499.565851) can0 498#0000000000000000
(1753981499.566100) can0 4DD#0000000000000100
(1753981499.566227) can0 4DE#00F11900F0D43E00
(1753981499.566463) can0 4E2#22014F010000D19E
(1753981499.566719) can0 542#AA1A00000000FFFF
(1753981499.566973) can0 595#1900C7C80000520F
(1753981499.567224) can0 596#3B8A00003900171A
(1753981499.567474) can0 597#8573000000000000
(1753981499.567725) can0 598#00000000C368F112
(1753981499.567975) can0 599#0800000000000000
(1753981499.568224) can0 59C#0000000000000000
(1753981499.568473) can0 59E#00000000520F0000
(1753981499.568712) can0 5A3#4F0000008C7D8C7D
(1753981499.568962) can0 5D5#000000A4C8C80015
(1753981499.569211) can0 5D6#C7C80000171A225A
(1753981499.569462) can0 5D7#0280000000000000
(1753981499.569587) can0 5D8#41AA15007300520F
(1753981499.571485) can0 7EC#24AA03E800001100
(1753981499.581351) can0 7EC#25AA0000C8C80100
(1753981499.591484) can0 7EC#261200000000AAAA
(1753981499.630741) can0 7E4#0322011100000000
(1753981499.636484) can0 7EC#1019620111F80000
(1753981499.636715) can0 7E4#3000000000000000
(1753981499.646517) can0 7EC#21000000007B0000
(1753981499.656490) can0 7EC#22003400000BB100
(1753981499.664866) can0 594#241E2823E6A50000
(1753981499.665092) can0 491#3900000000000004
(1753981499.665341) can0 493#000D306900003A02
(1753981499.665601) can0 4DD#0000000000000100
(1753981499.665715) can0 4DE#00F11900F0D43E00
(1753981499.665974) can0 4E2#22014F010000D19E
(1753981499.666225) can0 542#AA1A00000000FFFF
(1753981499.666465) can0 595#1900C7C80000510F
(1753981499.666714) can0 596#838A00003900171A
(1753981499.666964) can0 597#0573000000000000
(1753981499.667218) can0 598#00000000C368F112
(1753981499.667467) can0 599#0800000000000000
(1753981499.667715) can0 59C#0000000000000000
(1753981499.667964) can0 59E#00000000510F0000
(1753981499.668213) can0 5A3#4F0000008C7D8C7D
(1753981499.668464) can0 5D5#000000A4C8C80015
(1753981499.668588) can0 5D6#C7C80000171A3BB3
(1753981499.668965) can0 5D7#0280000000000000
(1753981499.669090) can0 5D8#41AA15007300510F
(1753981499.669339) can0 7EC#230006D03461AAAA
(1753981499.706479) can0 7E4#0322010100000000
(1753981499.716486) can0 7EC#103E620101FFF7E7
(1753981499.716725) can0 7E4#3000000000000000
(1753981499.726500) can0 7EC#21FFA50000000007
(1753981499.736492) can0 7EC#2200000F511A1718
(1753981499.746517) can0 7EC#23171719000019C8
(1753981499.756530) can0 7EC#2442C73800008A00
(1753981499.764857) can0 594#241E2823E6A50000
(1753981499.765093) can0 491#3900000000000004
(1753981499.765344) can0 493#000D306900003A02
(1753981499.765592) can0 4DD#0000000000000100
(1753981499.765843) can0 4DE#00F11900F0D43E00
(1753981499.765966) can0 4E2#22014F010000D19E
(1753981499.766218) can0 542#AA1A00000000FFFF
(1753981499.766466) can0 595#1900C7C80000510F
(1753981499.766718) can0 596#918A00003900171A
(1753981499.766966) can0 597#8573000000000000
(1753981499.767219) can0 598#00000000C368F112
(1753981499.767468) can0 599#0800000000000000
(1753981499.767718) can0 59C#0000000000000000
(1753981499.767967) can0 59E#00000000510F0000
(1753981499.768215) can0 5A3#4F0000008C7D8C7D
(1753981499.768467) can0 5D5#000000A4C8C80015
(1753981499.768714) can0 5D6#C7C80000171A3BB3
(1753981499.768838) can0 5D7#0280000000000000
(1753981499.769090) can0 5D8#41AA15007300510F
(1753981499.769340) can0 7EC#25033514000323BB
(1753981499.776479) can0 7EC#2600012B2200011D
(1753981499.786532) can0 7EC#274000C76CDC0119
(1753981499.796529) can0 7EC#28997FFF7FFF01E9
(1753981499.838982) can0 7E4#0322010500000000
(1753981499.846480) can0 7EC#102E620105003FFF
(1753981499.846714) can0 7E4#3000000000000000
(1753981499.856481) can0 7EC#2190000000000000
(1753981499.864862) can0 594#241E2823E6A50000
(1753981499.865088) can0 491#3900000000000004
(1753981499.865339) can0 493#000D306900003A02
(1753981499.865589) can0 4DD#0000000000000100
(1753981499.865839) can0 4DE#00F11900F0D43E00
(1753981499.865965) can0 4E2#22014F010000D19E
(1753981499.866215) can0 542#AA1A00000000FFFF
(1753981499.866463) can0 595#1900C7C80000520F
(1753981499.866716) can0 596#218A00003900171A
(1753981499.866991) can0 597#0573000000000000
(1753981499.867229) can0 598#00000000C368F112
(1753981499.867486) can0 599#0800000000000000
(1753981499.867737) can0 59C#0000000000000000
(1753981499.867989) can0 59E#00000000520F0000
(1753981499.868215) can0 5A3#4F0000008C7D8C7D
(1753981499.868489) can0 5D5#000000A4C8C80015
(1753981499.868717) can0 5D6#C7C80000171A915A
(1753981499.869015) can0 5D7#0280000000000000
(1753981499.869275) can0 5D8#41AA15007300520F
(1753981499.869341) can0 7EC#220000198A99191E
(1753981499.876501) can0 7EC#23242328000164F1
(1753981499.886485) can0 7EC#24AA03E800001100
(1753981499.896478) can0 7EC#25AA0000C8C80100
(1753981499.906485) can0 7EC#261200000000AAAA
(1753981499.942752) can0 7E4#0322011100000000
(1753981499.951529) can0 7EC#1019620111F80000
(1753981499.951720) can0 7E4#3000000000000000
(1753981499.961489) can0 7EC#21000000007B0000
(1753981499.964898) can0 594#241E2823E6A50000
(1753981499.965145) can0 491#3900000000000004
(1753981499.965395) can0 493#000D306900003A02
(1753981499.965645) can0 4DD#0000000000000100
(1753981499.965720) can0 4DE#00F11900F0D43E00
(1753981499.965968) can0 4E2#22014F010000D19E
(1753981499.966219) can0 542#AA1A00000000FFFF
(1753981499.966491) can0 595#1900C7C80000520F
(1753981499.966739) can0 596#228A00003900171A
(1753981499.966988) can0 597#8573000000000000
(1753981499.967219) can0 598#00000000C368F112
(1753981499.967490) can0 599#0800000000000000
(1753981499.967737) can0 59C#0000000000000000
(1753981499.967990) can0 59E#00000000520F0000
(1753981499.968238) can0 5A3#4F0000008C7D8C7D
(1753981499.968490) can0 5D5#000000A4C8C80015
(1753981499.968721) can0 5D6#C7C80000171A915A
(1753981499.968992) can0 5D7#0280000000000000
(1753981499.969239) can0 5D8#41AA15007300520F
(1753981499.971492) can0 7EC#22003400000BB100
(1753981499.981483) can0 7EC#230006D03461AAAA
(1753981500.064910) can0 594#241E2823E6A50000
(1753981500.065099) can0 491#3900000000000004
(1753981500.065346) can0 493#000D306900003A02
(1753981500.065594) can0 4DD#0000000000000100
(1753981500.065843) can0 4DE#00F11900F0D43E00
(1753981500.065967) can0 4E2#22014F010000D19E
(1753981500.066222) can0 542#AA1A00000000FFFF
(1753981500.066468) can0 595#1900C7C80000510F
(1753981500.066717) can0 596#2D8A00003900171A
(1753981500.066970) can0 597#0573000000000000
(1753981500.067216) can0 598#00000000C368F112
(1753981500.067468) can0 599#0800000000000000
(1753981500.067719) can0 59C#0000000000000000
(1753981500.067970) can0 59E#00000000510F0000
(1753981500.068218) can0 5A3#4F0000008C7D8C7D
(1753981500.068469) can0 5D5#000000A4C8C80015
(1753981500.068719) can0 5D6#C7C80000171A22B3
(1753981500.068972) can0 5D7#0280000000000000
(1753981500.069221) can0 5D8#41AA15007300510F
(1753981500.087125) can0 7E4#0322010100000000
(1753981500.096503) can0 7EC#103E620101FFF7E7
(1753981500.096764) can0 7E4#3000000000000000
(1753981500.106489) can0 7EC#21FFA50000000007
(1753981500.116499) can0 7EC#2200000F511A1718
(1753981500.126490) can0 7EC#23171719000019C8
(1753981500.136506) can0 7EC#2442C73800008A00
(1753981500.146534) can0 7EC#25033514000323BB
(1753981500.156486) can0 7EC#2600012B2200011D
(1753981500.164906) can0 594#241E2823E6A50000
(1753981500.165096) can0 491#3900000000000004
(1753981500.165397) can0 493#000D306900003A02
(1753981500.165648) can0 4DD#0000000000000100
(1753981500.165842) can0 4DE#00F11900F0D43E00
(1753981500.165968) can0 4E2#22014F010000D19E
(1753981500.166216) can0 542#AA1A00000000FFFF
(1753981500.166467) can0 595#1900C7C80000510F
(1753981500.166716) can0 596#3B8A00003900171A
(1753981500.166967) can0 597#8573000000000000
(1753981500.167218) can0 598#00000000C368F112
(1753981500.167467) can0 599#0800000000000000
(1753981500.167717) can0 59C#0000000000000000
(1753981500.167967) can0 59E#00000000510F0000
(1753981500.168217) can0 5A3#4F0000008C7D8C7D
(1753981500.168467) can0 5D5#000000A4C8C80015
(1753981500.168722) can0 5D6#C7C80000171A22B3
(1753981500.169026) can0 5D7#0280000000000000
(1753981500.169273) can0 5D8#41AA15007300510F
(1753981500.169345) can0 7EC#274000C76CDC0119
(1753981500.176489) can0 7EC#28997FFF7FFF01E9
(1753981500.264854) can0 594#241E2823E6A50000
(1753981500.265092) can0 491#3900000000000004
(1753981500.265343) can0 493#000D306900003A02
(1753981500.265592) can0 4DD#0000000000000100
(1753981500.265717) can0 4DE#00F11900F0D43E00
(1753981500.265968) can0 4E2#22014F010000D19E
(1753981500.266217) can0 542#AA1A00000000FFFF
(1753981500.266475) can0 595#1900C7C80000510F
(1753981500.266718) can0 596#838A00003900171A
(1753981500.266969) can0 597#0573000000000000
(1753981500.267218) can0 598#00000000C368F112
(1753981500.267467) can0 599#0800000000000000
(1753981500.267717) can0 59C#0000000000000000
(1753981500.267967) can0 59E#00000000510F0000
(1753981500.268223) can0 5A3#4F0000008C7D8C7D
(1753981500.268467) can0 5D5#000000A4C8C80015
(1753981500.268717) can0 5D6#C7C80000171A3B5A
(1753981500.268967) can0 5D7#0280000000000000
(1753981500.269215) can0 5D8#41AA15007300510F
(1753981500.326484) can0 7E4#0322010500000000
(1753981500.336483) can0 7EC#102E620105003FFF
(1753981500.336716) can0 7E4#3000000000000000
(1753981500.346476) can0 7EC#2190000000000000
(1753981500.356495) can0 7EC#220000198A99191E
(1753981500.364871) can0 594#241E2823E6A50000
(1753981500.365106) can0 491#3900000000000004
(1753981500.365354) can0 493#000D306900003A02
(1753981500.365608) can0 4DD#0000000000000100
(1753981500.365856) can0 4DE#00F11900F0D43E00
(1753981500.365981) can0 4E2#22014F010000D19E
(1753981500.366232) can0 542#AA1A00000000FFFF
(1753981500.366482) can0 595#1900C7C80000520F
(1753981500.366730) can0 596#918A00003900171A
(1753981500.366980) can0 597#8573000000000000
(1753981500.367231) can0 598#00000000C368F112
(1753981500.367469) can0 599#0800000000000000
(1753981500.367732) can0 59C#0000000000000000
(1753981500.367979) can0 59E#00000000520F0000
(1753981500.368231) can0 5A3#4F0000008C7D8C7D
(1753981500.368481) can0 5D5#000000A4C8C80015
(1753981500.368717) can0 5D6#C7C80000171A3B5A
(1753981500.368982) can0 5D7#0280000000000000
(1753981500.369229) can0 5D8#41AA15007300520F
(1753981500.369355) can0 7EC#23242328000164F1
(1753981500.376497) can0 7EC#24AA03E800001100
(1753981500.386515) can0 7EC#25AA0000C8C80100
(1753981500.396486) can0 7EC#261200000000AAAA
(1753981500.445887) can0 7E4#0322011100000000
(1753981500.451483) can0 7EC#1019620111F80000
(1753981500.451717) can0 7E4#3000000000000000
(1753981500.461481) can0 7EC#21000000007B0000
(1753981500.464854) can0 594#241E2823E6A50000
(1753981500.465093) can0 491#3900000000000004
(1753981500.465341) can0 493#000D306900003A02
(1753981500.465590) can0 4DD#0000000000000100
(1753981500.465839) can0 4DE#00F11900F0D43E00
(1753981500.465983) can0 4E2#22014F010000D19E
(1753981500.466232) can0 542#AA1A00000000FFFF
(1753981500.466482) can0 595#1900C7C80000520F
(1753981500.466732) can0 596#218A00003900171A
(1753981500.466971) can0 597#0573000000000000
(1753981500.467250) can0 598#00000000C368F112
(1753981500.467486) can0 599#0800000000000000
(1753981500.467722) can0 59C#0000000000000000
(1753981500.467968) can0 59E#00000000520F0000
(1753981500.468217) can0 5A3#4F0000008C7D8C7D
(1753981500.468469) can0 5D5#000000A4C8C80015
(1753981500.468717) can0 5D6#C7C80000171A91B3
(1753981500.468968) can0 5D7#0280000000000000
(1753981500.469219) can0 5D8#41AA15007300520F
(1753981500.471479) can0 7EC#22003400000BB100
(1753981500.481496) can0 7EC#230006D03461AAAA
(1753981500.542746) can0 7E4#0322010100000000
(1753981500.551494) can0 7EC#103E620101FFF7E7
(1753981500.551734) can0 7E4#3000000000000000
(1753981500.561486) can0 7EC#21FFA50000000007
(1753981500.564851) can0 594#241E2823E6A50000
(1753981500.565127) can0 491#3900000000000004
(1753981500.565374) can0 493#000D306900003A02
(1753981500.565627) can0 497#220000B400000000
(1753981500.565860) can0 498#0000000000000000
(1753981500.566108) can0 4DD#0000000000000100
(1753981500.566357) can0 4DE#00F11900F0D43E00
(1753981500.566486) can0 4E2#22014F010000D19E
(1753981500.566733) can0 542#AA1A00000000FFFF
(1753981500.566985) can0 595#1900C7C80000520F
(1753981500.567235) can0 596#228A00003900171A
(1753981500.567483) can0 597#8573000000000000
(1753981500.567734) can0 598#00000000C368F112
(1753981500.567981) can0 599#0800000000000000
(1753981500.568235) can0 59C#0000000000000000
(1753981500.568484) can0 59E#00000000520F0000
(1753981500.568720) can0 5A3#4F0000008C7D8C7D
(1753981500.568983) can0 5D5#000000A4C8C80015
(1753981500.569232) can0 5D6#C7C80000171A91B3
(1753981500.569481) can0 5D7#0280000000000000
(1753981500.569735) can0 5D8#41AA15007300520F
(1753981500.571486) can0 7EC#2200000F521A1718
(1753981500.581530) can0 7EC#23171719000019C8
(1753981500.591506) can0 7EC#2442C73800008A00
(1753981500.601524) can0 7EC#25033514000323BB
(1753981500.611508) can0 7EC#2600012B2200011D
(1753981500.621499) can0 7EC#274000C76CDD0119
(1753981500.631530) can0 7EC#28997FFF7FFF01E9
(1753981500.664900) can0 594#241E2823E6A50000
(1753981500.665133) can0 491#3900000000000004
(1753981500.665392) can0 493#000D306900003A02
(1753981500.665612) can0 4DD#0000000000000100
(1753981500.665859) can0 4DE#00F11900F0D43E00
(1753981500.666111) can0 4E2#22014F010000D19E
(1753981500.666233) can0 542#AA1A00000000FFFF
(1753981500.666484) can0 595#1900C7C80000520F
(1753981500.666734) can0 596#2D8A00003900171A
(1753981500.666984) can0 597#0573000000000000
(1753981500.667227) can0 598#00000000C368F112
(1753981500.667478) can0 599#0800000000000000
(1753981500.667726) can0 59C#0000000000000000
(1753981500.667976) can0 59E#00000000520F0000
(1753981500.668228) can0 5A3#4F0000008C7D8C7D
(1753981500.668475) can0 5D5#000000A4C8C80015
(1753981500.668727) can0 5D6#C7C80000171A225A
(1753981500.668974) can0 5D7#0280000000000000
(1753981500.669226) can0 5D8#41AA15007300520F
(1753981500.712759) can0 7E4#0322010500000000
(1753981500.721508) can0 7EC#102E620105003FFF
(1753981500.721727) can0 7E4#3000000000000000
(1753981500.731539) can0 7EC#2190000000000000
(1753981500.741495) can0 7EC#220000198A99191E
(1753981500.751537) can0 7EC#23242328000164F1
(1753981500.761504) can0 7EC#24AA03E800001100
(1753981500.764867) can0 594#241E2823E6A50000
(1753981500.765103) can0 491#3900000000000004
(1753981500.765356) can0 493#000D306900003A02
(1753981500.765606) can0 4DD#0000000000000100
(1753981500.765898) can0 4DE#00F11900F0D43E00
(1753981500.765977) can0 4E2#22014F010000D19E
(1753981500.766224) can0 542#AA1A00000000FFFF
(1753981500.766474) can0 595#1900C7C80000520F
(1753981500.766722) can0 596#3B8A00003900171A
(1753981500.766974) can0 597#8573000000000000
(1753981500.767225) can0 598#00000000C368F112
(1753981500.767475) can0 599#0800000000000000
(1753981500.767724) can0 59C#0000000000000000
(1753981500.767974) can0 59E#00000000520F0000
(1753981500.768224) can0 5A3#4F0000008C7D8C7D
(1753981500.768473) can0 5D5#000000A4C8C80015
(1753981500.768723) can0 5D6#C7C80000171A225A
(1753981500.768974) can0 5D7#0280000000000000
(1753981500.769223) can0 5D8#41AA15007300520F
(1753981500.771474) can0 7EC#25AA0000C8C80100
(1753981500.781538) can0 7EC#261200000000AAAA
(1753981500.825241) can0 7E4#0322011100000000
(1753981500.831489) can0 7EC#1019620111F80000
(1753981500.831723) can0 7E4#3000000000000000
(1753981500.841499) can0 7EC#21000000007B0000
(1753981500.851489) can0 7EC#22003400000BB100
(1753981500.861491) can0 7EC#230006D03461AAAA
(1753981500.864867) can0 594#241E2823E6A50000
(1753981500.865104) can0 491#3900000000000004
(1753981500.865352) can0 493#000D306900003A02
(1753981500.865603) can0 4DD#0000000000000100
(1753981500.865852) can0 4DE#00F11900F0D43E00
(1753981500.865977) can0 4E2#22014F010000D19E
(1753981500.866228) can0 542#AA1A00000000FFFF
(1753981500.866479) can0 595#1900C7C80000510F
(1753981500.866730) can0 596#838A00003900171A
(1753981500.866978) can0 597#0573000000000000
(1753981500.867242) can0 598#00000000C368F112
(1753981500.867487) can0 599#0800000000000000
(1753981500.867741) can0 59C#0000000000000000
(1753981500.867995) can0 59E#00000000510F0000
(1753981500.868240) can0 5A3#4F0000008C7D8C7D
(1753981500.868490) can0 5D5#000000A4C8C80015
(1753981500.868731) can0 5D6#C7C80000171A3BB3
(1753981500.868990) can0 5D7#0280000000000000
(1753981500.869238) can0 5D8#41AA15007300510F
(1753981500.900272) can0 7E4#0322010100000000
(1753981500.906489) can0 7EC#103E620101FFF7E7
(1753981500.906723) can0 7E4#3000000000000000
(1753981500.916534) can0 7EC#21FFA50000000007
(1753981500.926538) can0 7EC#2200000F511A1718
(1753981500.936489) can0 7EC#23171719000019C8
(1753981500.946498) can0 7EC#2442C73800008A00
(1753981500.956497) can0 7EC#25033514000323BB
(1753981500.964919) can0 594#241E2823E6A50000
(1753981500.965105) can0 491#3900000000000004
(1753981500.965404) can0 493#000D306900003A02
(1753981500.965655) can0 4DD#0000000000000100
(1753981500.965855) can0 4DE#00F11900F0D43E00
(1753981500.966105) can0 4E2#22014F010000D19E
(1753981500.966229) can0 542#AA1A00000000FFFF
(1753981500.966481) can0 595#1900C7C80000510F
(1753981500.966730) can0 596#918A00003900171A
(1753981500.966979) can0 597#8573000000000000
(1753981500.967229) can0 598#00000000C368F112
(1753981500.967478) can0 599#0800000000000000
(1753981500.967729) can0 59C#0000000000000000
(1753981500.967980) can0 59E#00000000510F0000
(1753981500.968230) can0 5A3#4F0000008C7D8C7D
(1753981500.968479) can0 5D5#000000A4C8C80015
(1753981500.968732) can0 5D6#C7C80000171A3BB3
(1753981500.968980) can0 5D7#0280000000000000
(1753981500.969237) can0 5D8#41AA15007300510F
(1753981500.969359) can0 7EC#2600012B2200011D
(1753981500.976512) can0 7EC#274000C76CDD0119
(1753981500.986542) can0 7EC#28997FFF7FFF01E9
(1753981501.042746) can0 7E4#0322010500000000
(1753981501.051496) can0 7EC#102E620105003FFF
(1753981501.051727) can0 7E4#3000000000000000
(1753981501.061492) can0 7EC#2190000000000000
(1753981501.064906) can0 594#241E2823E6A50000
(1753981501.065159) can0 491#3900000000000004
(1753981501.065390) can0 493#000D306900003A02
(1753981501.065643) can0 4DD#0000000000000100
(1753981501.065903) can0 4DE#00F11900F0D43E00
(1753981501.066020) can0 4E2#22014F010000D19E
(1753981501.066394) can0 542#AA1A00000000FFFF
(1753981501.066486) can0 595#1900C7C80000520F
(1753981501.066739) can0 596#218A00003900171A
(1753981501.066987) can0 597#0573000000000000
(1753981501.067238) can0 598#00000000C368F112
(1753981501.067499) can0 599#0800000000000000
(1753981501.067749) can0 59C#0000000000000000
(1753981501.068000) can0 59E#00000000520F0000
(1753981501.068249) can0 5A3#4F0000008C7D8C7D
(1753981501.068488) can0 5D5#000000A4C8C80015
(1753981501.068737) can0 5D6#C7C80000171A915A
(1753981501.069000) can0 5D7#0280000000000000
(1753981501.069249) can0 5D8#41AA15007300520F
(1753981501.071503) can0 7EC#220000198A99191E
(1753981501.081492) can0 7EC#23242328000164F1
(1753981501.091493) can0 7EC#24AA03E800001100
(1753981501.101543) can0 7EC#25AA0000C8C80100
(1753981501.111504) can0 7EC#261200000000AAAA
(1753981501.164872) can0 594#241E2823E6A50000
(1753981501.165103) can0 491#3900000000000004
(1753981501.165354) can0 493#000D306900003A02
(1753981501.165604) can0 4DD#0000000000000100
(1753981501.165853) can0 4DE#00F11900F0D43E00
(1753981501.166105) can0 4E2#22014F010000D19E
(1753981501.166229) can0 542#AA1A00000000FFFF
(1753981501.166478) can0 595#1900C7C80000520F
(1753981501.166732) can0 596#228A00003900171A
(1753981501.166979) can0 597#8573000000000000
(1753981501.167233) can0 598#00000000C368F112
(1753981501.167481) can0 599#0800000000000000
(1753981501.167730) can0 59C#0000000000000000
(1753981501.167981) can0 59E#00000000520F0000
(1753981501.168229) can0 5A3#4F0000008C7D8C7D
(1753981501.168476) can0 5D5#000000A4C8C80015
(1753981501.168732) can0 5D6#C7C80000171A915A
(1753981501.168980) can0 5D7#0280000000000000
(1753981501.169231) can0 5D8#41AA15007300520F
(1753981501.185886) can0 7E4#0322011100000000
(1753981501.191497) can0 7EC#1019620111F80000
(1753981501.191730) can0 7E4#3000000000000000
(1753981501.201514) can0 7EC#21000000007B0000
(1753981501.211495) can0 7EC#22003400000BB100
(1753981501.221544) can0 7EC#230006D03461AAAA
(1753981501.264915) can0 594#241E2823E6A50000
(1753981501.265150) can0 491#3900000000000004
(1753981501.265356) can0 493#000D306900003A02
(1753981501.265607) can0 4DD#0000000000000100
(1753981501.265859) can0 4DE#00F11900F0D43E00
(1753981501.266125) can0 4E2#22014F010000D19E
(1753981501.266235) can0 542#AA1A00000000FFFF
(1753981501.266606) can0 595#1900C7C80000520F
(1753981501.266732) can0 596#2D8A00003900171A
(1753981501.266981) can0 597#0573000000000000
(1753981501.267252) can0 598#00000000C368F112
(1753981501.267482) can0 599#0800000000000000
(1753981501.267729) can0 59C#0000000000000000
(1753981501.267982) can0 59E#00000000520F0000
(1753981501.268255) can0 5A3#4F0000008C7D8C7D
(1753981501.268483) can0 5D5#000000A4C8C80015
(1753981501.268730) can0 5D6#C7C80000171A22B3
(1753981501.268982) can0 5D7#0280000000000000
(1753981501.269253) can0 5D8#41AA15007300520F
(1753981501.327747) can0 7E4#0322010100000000
(1753981501.336552) can0 7EC#103E620101FFF7E7
(1753981501.336742) can0 7E4#3000000000000000
(1753981501.346507) can0 7EC#21FFA50000000007
(1753981501.356512) can0 7EC#2200000F521A1718
(1753981501.364888) can0 594#241E2823E6A50000
(1753981501.365129) can0 491#3900000000000004
(1753981501.365381) can0 493#000D306900003A02
(1753981501.365627) can0 4DD#0000000000000100
(1753981501.365875) can0 4DE#00F11900F0D43E00
(1753981501.366124) can0 4E2#22014F010000D19E
(1753981501.366379) can0 542#AA1A00000000FFFF
(1753981501.366486) can0 595#1900C7C80000520F
(1753981501.366762) can0 596#3B8A00003900171A
(1753981501.367003) can0 597#8573000000000000
(1753981501.367253) can0 598#00000000C368F112
(1753981501.367502) can0 599#0800000000000000
(1753981501.367732) can0 59C#0000000000000000
(1753981501.367982) can0 59E#00000000520F0000
(1753981501.368232) can0 5A3#4F0000008C7D8C7D
(1753981501.368480) can0 5D5#000000A4C8C80015
(1753981501.368730) can0 5D6#C7C80000171A22B3
(1753981501.368980) can0 5D7#0280000000000000
(1753981501.369231) can0 5D8#41AA15007300520F
(1753981501.369355) can0 7EC#23171719000019C8
(1753981501.376502) can0 7EC#2442C73800008A00
(1753981501.386547) can0 7EC#25033514000323BB
(1753981501.396507) can0 7EC#2600012B2200011D
(1753981501.406547) can0 7EC#274000C76CDD0119
(1753981501.416503) can0 7EC#28997FFF7FFF01E9
(1753981501.462642) can0 7E4#0322010500000000
(1753981501.464878) can0 594#241E2823E6A50000
(1753981501.465128) can0 491#3900000000000004
(1753981501.465379) can0 493#000D306900003A02
(1753981501.465627) can0 4DD#0000000000000100
(1753981501.465877) can0 4DE#00F11900F0D43E00
(1753981501.466127) can0 4E2#22014F010000D19E
(1753981501.466251) can0 542#AA1A00000000FFFF
(1753981501.466504) can0 595#1900C7C80000520F
(1753981501.466754) can0 596#838A00003900171A
(1753981501.467002) can0 597#0573000000000000
(1753981501.467253) can0 598#00000000C368F112
(1753981501.467503) can0 599#0800000000000000
(1753981501.467733) can0 59C#0000000000000000
(1753981501.468001) can0 59E#00000000520F0000
(1753981501.468240) can0 5A3#4F0000008C7D8C7D
(1753981501.468486) can0 5D5#000000A4C8C80015
(1753981501.468734) can0 5D6#C7C80000171A3B5A
(1753981501.468985) can0 5D7#0280000000000000
(1753981501.469232) can0 5D8#41AA15007300520F
(1753981501.471490) can0 7EC#102E620105003FFF
(1753981501.471734) can0 7E4#3000000000000000
(1753981501.481517) can0 7EC#2190000000000000
(1753981501.491540) can0 7EC#220000198A99191E
(1753981501.501502) can0 7EC#23242328000164F1
(1753981501.511497) can0 7EC#24AA03E800001100
(1753981501.521543) can0 7EC#25AA0000C8C80100
(1753981501.531548) can0 7EC#261200000000AAAA
(1753981501.564869) can0 594#241E2823E6A50000
(1753981501.565104) can0 491#3900000000000004
(1753981501.565356) can0 493#000D306900003A02
(1753981501.565605) can0 497#110000B400000000
(1753981501.565855) can0 498#0000000000000000
(1753981501.566107) can0 4DD#0000000000000100
(1753981501.566356) can0 4DE#00F11900F0D43E00
(1753981501.566606) can0 4E2#22014F010000D19E
(1753981501.566731) can0 542#AA1A00000000FFFF
(1753981501.566983) can0 595#1900C7C80000510F
(1753981501.567232) can0 596#918A00003900171A
(1753981501.567481) can0 597#8573000000000000
(1753981501.567732) can0 598#00000000C368F112
(1753981501.567982) can0 599#0800000000000000
(1753981501.568231) can0 59C#0000000000000000
(1753981501.568481) can0 59E#00000000510F0000
(1753981501.568730) can0 5A3#4F0000008C7D8C7D
(1753981501.568981) can0 5D5#000000A4C8C80015
(1753981501.569231) can0 5D6#C7C80000171A3B5A
(1753981501.569481) can0 5D7#0280000000000000
(1753981501.569731) can0 5D8#41AA15007300510F
(1753981501.579503) can0 7E4#0322011100000000
(1753981501.586520) can0 7EC#1019620111F80000
(1753981501.586736) can0 7E4#3000000000000000
(1753981501.596518) can0 7EC#21000000007B0000
(1753981501.606514) can0 7EC#22003400000BB100
(1753981501.616503) can0 7EC#230006D03461AAAA
(1753981501.657765) can0 7E4#0322010100000000
(1753981501.664892) can0 594#241E2823E6A50000
(1753981501.665129) can0 491#3900000000000004
(1753981501.665379) can0 493#000D306900003A02
(1753981501.665631) can0 4DD#0000000000000100
(1753981501.665878) can0 4DE#00F11900F0D43E00
(1753981501.666131) can0 4E2#22014F010000D19E
(1753981501.666252) can0 542#AA1A00000000FFFF
(1753981501.666504) can0 595#1900C7C80000510F
(1753981501.666753) can0 596#218A00003900171A
(1753981501.667003) can0 597#0573000000000000
(1753981501.667257) can0 598#00000000C368F112
(1753981501.667506) can0 599#0800000000000000
(1753981501.667757) can0 59C#0000000000000000
(1753981501.668006) can0 59E#00000000510F0000
(1753981501.668236) can0 5A3#4F0000008C7D8C7D
(1753981501.668510) can0 5D5#000000A4C8C80015
(1753981501.668738) can0 5D6#C7C80000171A91B3
(1753981501.669037) can0 5D7#0280000000000000
(1753981501.669237) can0 5D8#41AA15007300510F
(1753981501.669523) can0 7EC#103E620101FFF7E7
(1753981501.669734) can0 7E4#3000000000000000
(1753981501.676513) can0 7EC#21FFA50000000007
